!Keysight Technologies N9916A: A.08.01
!Date: Wednesday, 21 June 2023 19:10:47
!Timezone: (GMT+01:00) Amsterdam, Berlin, Bern, Rome, Stockholm, Vienna
!Model: N9916A
!Serial: MY53104702
!GPS Latitude: 
!GPS Longitude: 
!GPS TimeStamp: 0001-01-01 00:00:00Z
!GPS Seconds Since Last Read: 0
!CHECKSUM:2019168114
!Correction: S11(Rdy)S21(Rdy)S12(OFF)S22(Rdy)
!S2P File: Measurements:S11,S21,S12,S22:
# Hz S DB R 50
30000000	-0.348353397692503	171.785507770924	6.24421801441792	-4.65733333370158	-53.8347673573915	-73.1025760242825	-0.35815048369943	158.991049050041	
59850000	-0.445114953919905	-4.41982463242766	1.32796538934887	156.094663489292	-49.2150876572915	30.1652255074802	-0.390098939938753	-21.0014649014514	
89700000	-0.405724260927293	-168.941074574599	-21.65761597787	59.6617054391214	-51.2108803094273	-46.4131624269675	-0.574995020491384	171.318826005041	
119550000	-0.524925973688426	33.5078714453293	-8.09109175210212	-140.153304803808	-61.2096254234504	11.4161756734154	-1.02092641439384	36.1276805742475	
149400000	-0.410625030175962	-118.781129599787	-44.1154393382863	-146.794604555913	-56.0469341197573	76.8943019048511	-0.467146272545984	-120.346808412759	
179250000	-0.6975514579816	92.4580656029029	-19.4570696073331	-108.207886167978	-52.2499759161431	49.4666449809965	-0.694451489662845	92.1149493615634	
209100000	-0.505216696024451	-54.5450443430464	-11.341670963861	105.799633024075	-46.4752697773504	89.3605443599939	-0.472362621703078	-52.9898030972915	
238950000	-0.802532881114087	158.711358415002	-2.93782637092137	-27.4883995134299	-41.456083825592	116.353938437824	-0.731275455291666	162.569469758767	
268800000	-0.648712266607983	14.9346302593897	-0.961636097334061	170.160706400787	-39.0188176197401	145.359122702004	-0.562338906168798	20.7737250181047	
298650000	-0.819029953027853	-129.739782579132	2.92800206350081	48.2495422973985	-34.9934308825345	165.177128042142	-0.665166715559158	-121.600383962551	
328500000	-0.81889997272147	86.7933722338499	5.60144902809907	-119.923838932056	-32.7214394676457	-173.871620038859	-0.662887715549405	96.4896722399409	
358350000	-0.803044434018471	-54.8949171245241	5.88790966560557	118.594717066028	-30.9225890101639	-154.355253035238	-0.592616264446577	-43.2076657507496	
388200000	-0.988400648883176	160.148906562266	10.2028456918346	-41.1908795512848	-29.4791479893693	-134.322469539338	-0.75067110506443	173.88926334381	
418050000	-0.824575778719481	20.0983337544642	8.70389534812865	-175.78728912132	-28.8729465032038	-110.582070178553	-0.499044008518093	35.5595784187535	
447900000	-1.05333773940028	-123.707225303895	11.9964638666445	48.1970035515079	-28.5984994904492	-86.5245522088386	-0.72951366936833	-106.815369579293	
477750000	-0.924453233931561	94.3323070836603	11.1527296805681	-109.291855267875	-29.0031134151646	-56.1607415493921	-0.511313317859981	113.217578751959	
507600000	-0.971198224799064	-46.6230399504851	12.0845812741831	132.593039809557	-29.0148350439049	-28.1547120185152	-0.526817971228411	-26.7918052038856	
537450000	-1.21450375943405	169.192423057674	13.5987881498783	-39.0201573552211	-29.7774067806409	5.20352212645986	-0.699827133733333	-167.774474425757	
567300000	-1.02826461113532	28.9178692451488	12.5208581207649	-158.782941335437	-29.9300892457141	36.5128903004037	-0.365558238098231	52.6234204824111	
597150000	-1.43957658857539	-114.790122382603	15.936695227858	44.5115497468469	-31.599262287055	66.3428316362408	-1.05509109096117	-88.5729261154654	
627000000	-1.14815891006445	104.298094397273	14.0296285493266	-90.7133757451036	-31.9498453260789	111.495777317789	-0.36638991786645	131.264379098459	
656850000	-1.2336517064278	-37.724962502856	15.7320910633951	141.460561120868	-31.6528882428805	148.078535075828	-1.15817783634359	-11.519120002681	
686700000	-1.42542873724726	-179.592423118157	15.7134207598505	-20.603203631826	-32.7534605736967	-175.752565647445	-0.687516497706393	-146.836903133574	
716550000	-1.15075393222539	39.6831575348	14.8494268937227	-137.044066729538	-26.5209092028618	-110.737926015374	-0.844236968065756	64.6381043016476	
746400000	-2.00449276232506	-103.092719725123	17.4595056847038	53.0775585857734	-28.9792963483964	-103.476804783373	-1.38337112394434	-67.0045927875081	
776250000	-1.41187535045412	115.293194802783	15.4502313367276	-69.3565910288646	-29.0490576513854	-67.839453766879	-0.709583185276249	144.75777677269	
806100000	-2.35175610384537	-31.2902308159161	18.9308650483177	137.513228680017	-28.7369850810179	-36.8220632287717	-2.65940263636533	9.89765213741753	
835950000	-1.93644691431769	-169.472722700247	16.8015127148383	0.286231250397703	-28.7834500400867	-3.34658277007768	-0.998624639710686	-130.698075236905	
865800000	-1.69074941620168	43.0375149699515	18.1238469580772	-126.242936612406	-28.265328468243	33.6673165028116	-3.86851767000409	80.7643043741212	
895650000	-2.63988068222946	-91.9665250260116	18.0288286448882	71.7666924609814	-27.5691894343438	65.7703314493262	-1.79136839198141	-47.6766262130819	
925500000	-1.63234433878196	124.161750819186	16.5862549622209	-44.2952613222722	-27.0694557030013	97.6468410883771	-3.48733438935059	152.126912176021	
955350000	-4.0327093266412	-20.585021180542	19.5058244921226	145.367071717393	-26.675762546473	131.86589654447	-3.45649881751337	33.0781438481366	
985200000	-2.43753495386106	-159.968861978896	17.0814653332084	22.3618897935198	-26.1288560019318	164.16875344869	-3.32488169364481	-124.26832742772	
1015050000	-4.8768156576897	43.2542045710464	20.7709057232487	-131.67600885035	-25.8465538958883	-161.617031388056	-6.12120318058707	112.152856584771	
1044900000	-3.38039415716719	-80.5150656782459	18.0080793876646	93.6436167082426	-25.5728390188127	-128.696050598754	-2.79747441792748	-33.8514540597759	
1074750000	-2.73191534169763	120.3005351427	19.8603132191895	-35.4512174664687	-25.1919594126451	-96.3647303359733	-8.56183835618111	178.9028447963	
1104600000	-5.13633662583792	-5.85763633201591	19.0321376064038	164.364713747841	-25.0483883353884	-69.473665899753	-4.06492293664973	52.5382619876353	
1134450000	-2.20395452368809	-149.341564322128	17.6578454564897	52.2780507910109	-25.5682276476355	-48.5083648398324	-6.93353547032026	-112.585811491609	
1164300000	-8.18431613184535	57.0013200686013	20.34344990405	-121.278495883782	-43.7594141158696	-27.2251659134825	-6.90220078233742	139.641872885077	
1194150000	-3.51583872223215	-68.6350629838453	17.9293790595027	120.607257292215	-24.7325606649264	71.6232653908412	-5.04325935104903	-26.5592555484428	
1224000000	-8.8084493686566	109.290334208214	21.2528840070424	-40.2632522137504	-23.993665388712	90.0368799910227	-10.9343394224766	-140.676619067178	
1253850000	-6.46164971838935	9.81418887552188	18.7701745448171	-173.223679647153	-24.1918044165017	119.269249970366	-5.32788417803897	64.9334994309952	
1283700000	-5.35115915501426	-161.10685880137	20.6405393266181	53.0729801641598	-24.5348496334993	150.699066933602	-11.8747701095329	-86.7746819401164	
1313550000	-10.9891089366854	83.4750635499419	19.3868616680629	-100.930087579832	-24.8271701639898	-176.987989928471	-7.42679964185174	161.416294233758	
1343400000	-5.15932707395339	-64.8505361637838	19.040144931047	138.517606935101	-25.1868236184505	-142.969042987566	-8.86369901205746	-17.6433694443579	
1373250000	-16.4903220132893	144.66488878799	19.8029939116064	-22.4439690253629	-25.5977616387088	-110.483293654502	-9.91578832015995	-111.925888319554	
1403100000	-7.85333837166183	28.8257057084325	18.5738633945407	-147.623106306564	-26.0028022538822	-75.6471525422895	-6.74268450499973	78.9158526474247	
1432950000	-11.8953689260344	-154.868252104075	20.3094662527473	61.7007129492475	-26.5404969236973	-41.0210155753705	-12.7318316030648	-54.4930499057657	
1462800000	-11.161434326261	118.054788967846	18.4110937731581	-73.3277976361763	-27.1356395277946	-6.47455498936846	-6.9966595295676	173.791369105486	
1492650000	-8.809892293041	-63.5425963322434	19.702069208328	149.496802468112	-27.5316540437517	30.2399638490084	-11.4254780723333	-2.95915345963033	
1522500000	-16.5380254471437	-158.773967668625	18.3100420391612	4.77708581113732	-28.2103506153379	65.592661298361	-8.67801634398091	-95.7553704997651	
1552350000	-9.23257947606326	36.6570602250365	18.588752850902	-123.622634526245	-29.3147420938361	102.229892571249	-9.04160859848016	87.1581790555841	
1582200000	-21.324184848277	-134.598735541152	18.6545236545685	84.6388734936111	-31.1251724326786	130.09266347855	-12.3812604123938	-22.5242299975534	
1612050000	-13.4209319795603	149.448202927509	17.7002958210857	-43.4454193570577	-39.3824143771661	-141.180314481352	-7.33843419184205	-171.21777350596	
1641900000	-15.5501455291613	-60.2379054454212	19.0237931820886	171.235133581533	-30.2861481934512	-115.202668388728	-12.9123430944289	34.1899456278176	
1671750000	-16.0693170269027	-99.3572960833646	17.4308076436537	34.9333120239222	-29.8280944979479	-87.8595184019769	-7.19896313561065	-81.7744811619088	
1701600000	-13.6388661804051	51.7271022310185	18.7326899698798	-101.224724704888	-30.0265630390628	-51.5361875250335	-9.25481828238429	106.80854986989	
1731450000	-25.5944489484643	-16.8843131696031	17.4598772900216	112.396547782115	-30.3943594017695	-9.95540689255234	-9.52928777754168	-3.29139135528783	
1761300000	-14.0442775412399	176.423734094204	17.6913663409624	-15.7845717111968	-27.3475309458163	29.6607278801817	-6.90810132502778	-158.958102507986	
1791150000	-24.7666186160212	-76.3364581023088	17.8443593633385	-165.884854749741	-28.110356571743	54.4734670286728	-11.8625614341764	61.9193303384173	
1821000000	-17.1167395667375	-67.1436485549954	16.8149554548336	63.9781530325396	-28.242483733738	89.9909941523895	-6.65925238830709	-71.1750161139014	
1850850000	-21.5994859230021	41.696714613456	17.935455938112	-80.0771824494223	-28.0140618401747	121.76952074951	-9.67601274828951	132.29908859137	
1880700000	-21.4052428394543	63.9999325268835	16.3455838776575	142.772472543995	-27.2210837243655	155.217598057126	-8.08940485806749	15.7326136928034	
1910550000	-21.3999036498486	-173.847710528304	17.3890778793346	7.92325537100231	-26.5415695164596	-166.632921651436	-7.37261551549624	-142.949433961384	
1940400000	-20.9809145538141	-153.783677245931	16.3128423201183	-137.689235660922	-25.6486503323184	-133.781155948933	-9.71350329125802	94.9142796474873	
1970250000	-21.7607307784567	-24.1387203584248	16.4243614678304	92.2707628204209	-25.7664386424484	-100.458178658553	-6.4490034168187	-56.0761771886975	
2000100000	-20.7453024839992	-37.1885575705597	16.5095141940478	-55.2307240904636	-27.4412728150077	-46.0253363682957	-9.30999205289332	165.110888915261	
2029950000	-19.0768953175317	114.568653510311	15.5474669508496	173.518831986319	-21.0063317309811	-8.20963662766785	-6.95160682052721	34.4283048716122	
2059800000	-24.7188625304964	66.5674437102207	16.4948190926867	30.4453819956475	-19.1874353140777	10.3215964220214	-7.57043310017755	-121.015630902907	
2089650000	-15.6621109769112	-138.927890871079	14.9278423665127	-106.78096995996	-18.1766792026399	31.115178390688	-7.53952567787604	123.501975640889	
2119500000	-25.3475144066241	107.641831768902	15.9424096251476	118.128220276942	-17.6277117227795	48.6271620868403	-6.70213604202834	-36.6555249875426	
2149350000	-15.180007102889	-33.290498734225	14.780132624432	-26.8355770010418	-18.399103786751	68.0405929210034	-8.01418483640082	-162.51755489636	
2179200000	-17.0413541988189	163.876676724318	14.8304228315225	-156.08891647413	-19.570105134183	90.2411326053607	-6.24299716960234	58.4606274316509	
2209050000	-14.7808224714174	75.6563451495361	15.0443124028072	56.3738332634328	-21.174770736641	116.075005091762	-7.92920308423077	-92.466877932126	
2238900000	-13.7174724143234	-104.549256895924	13.7910295401582	-75.0877491654205	-22.8159346248208	142.614617307848	-6.19900449578955	146.699170625866	
2268750000	-15.470224588129	161.139105545305	14.9705237078912	144.091551081602	-24.8265717951607	172.495226353039	-7.04950586829535	-9.1215445874975	
2298600000	-12.7314039852222	-2.56428553423744	13.3271892391184	4.43350521111375	-27.8778204260474	-154.450597277896	-7.05502145333014	-133.760882187802	
2328450000	-14.7606202638494	-142.732394499558	14.1428545868648	-127.916649880653	-29.738520604749	-109.654185634949	-6.0374081123118	82.9189564416873	
2358300000	-11.171296453637	97.9055317919562	13.3492047162145	85.5554901880446	-30.6760492543466	-67.9268858233401	-7.69460994447364	-59.0195980429315	
2388150000	-12.8721705896019	-60.1542012681019	12.9951353619965	-44.0415898397457	-31.0586875638242	-29.1349535971263	-5.72736140758044	170.418379817986	
2418000000	-11.4196642954477	-174.139002338435	13.494535431345	170.509527080286	-31.1092461793036	5.80429389910203	-7.1630804306277	24.4747281614986	
2447850000	-11.2107051816162	34.5412319548076	12.2030947109835	36.7719205865626	-31.2734768430424	36.8352034603069	-6.37567219154947	-106.146638128185	
2477700000	-12.2078782492821	-95.6884244710776	13.1221048186443	-101.842009929253	-32.4482606854552	63.4352257447111	-6.19082501580182	110.753002739784	
2507550000	-9.65737085345168	125.63742288713	11.7542937916034	117.044560080597	-34.1812592632343	95.9566625010798	-7.19360845542147	-23.7875847073835	
2537400000	-12.7526765072693	0.972435402107347	11.8007056616474	-12.3257999764464	-35.5660395143913	130.023804793489	-5.81449114634085	-164.939069003877	
2567250000	-9.65751886241063	-146.509176058814	11.6481601135034	-160.568756879685	-40.4347537546808	167.382987303358	-7.07091455370196	59.8256633511414	
2597100000	-9.8648346238832	74.3487422368319	11.131567889607	68.0766791788467	-44.1365964054337	-139.121179590718	-6.2653154411326	-78.6908166993461	
2626950000	-9.80433788866188	-53.1169344027376	11.4535145504962	-74.9300752363047	-45.0603930764499	-89.9881970740759	-6.6414105954438	141.478638846237	
2656800000	-9.210137590907	158.089632164823	10.2771502940833	148.950916723021	-43.1381358046546	-19.3154575217813	-6.93590824097903	12.1511789726654	
2686650000	-9.43008203909719	35.867592162775	10.8750094242695	10.5365492724883	-44.4617711680794	18.2310771571514	-6.84026993233568	-137.719638634926	
2716500000	-9.01961420399694	-110.303268887264	9.49137111790967	-130.825854830809	-43.964377153196	70.6066575489614	-7.26752793502962	96.5801853238626	
2746350000	-8.75266157324935	120.25372062649	9.48100359475727	95.5903089591508	-44.894976700024	128.350320745345	-7.83693735818886	-44.059053481771	
2776200000	-7.85250421416963	-10.0299903549981	8.43239693254466	-47.5243051523865	-42.038098215493	-175.165943274603	-8.37282492777162	-177.860089792944	
2806050000	-7.53381399322574	-154.634217820645	6.88153855565483	-177.147062211522	-39.939861275653	-138.726567706772	-6.87916746295698	60.9507539042327	
2835900000	-5.92283344035843	71.4371337188859	7.66621106793319	50.3023533326563	-37.6677512777163	-100.420921276643	-6.25908137164173	-82.6318830851296	
2865750000	-6.55337177955885	-72.9396922697874	6.59200968129597	-83.4872269075582	-37.0174806311438	-59.5058054501432	-4.76401541057273	136.289573033727	
2895600000	-6.39358860096015	146.99699336734	7.63030871298666	142.418125891552	-29.7183832308536	-40.8164459612787	-5.25558159292218	-4.99440557973873	
2925450000	-6.50376233893956	14.9205232780406	5.86946234231752	4.14761667727906	-34.6577677711253	-40.6109373712465	-5.76693627702301	-155.966328340842	
2955300000	-7.44368773285745	-132.410624383016	6.76415947470101	-112.322565283474	-38.0842507769649	-4.8945927071062	-6.85974684202255	68.3312941328775	
2985150000	-7.26637361923479	101.625428237872	9.69780431093881	103.153161728401	-41.3795098269189	44.1834713864463	-9.98540562177858	-56.7559479005836	
3015000000	-7.6194572323819	-31.8342806520167	9.4048519476013	-41.7060919595627	-44.2602118688383	91.0048377934426	-7.26139630122597	174.410182496029	
3044850000	-7.36602449480829	-170.163572656347	10.0443423249907	173.824801257626	-44.5738830820993	124.9540349111	-6.61410734371743	38.8741100674811	
3074700000	-6.48203068018217	57.2421127759401	8.46646122745994	32.0877801136423	-44.8938063924458	-160.053375404764	-7.03021998030539	-101.799868009857	
3104550000	-7.54140859803436	-79.6836136206258	8.97407232558713	-102.093044416001	-44.6294150203366	-121.840786044895	-5.97675257549723	118.863320348695	
3134400000	-6.24949172647017	141.884625270001	8.16627430129357	112.073698041096	-44.2398353230851	-63.0026250189933	-6.87212965597388	-14.602384905189	
3164250000	-6.68793059638348	11.9164133495759	7.75867230276541	-18.2507748776022	-47.6735442008578	-23.7966238340842	-6.48062663116924	-157.826174159196	
3194100000	-6.76315214827458	-125.731470222404	8.19160987333905	-163.197007638828	-49.7261590176368	66.6614293663814	-6.52568382380631	66.607427712828	
3223950000	-6.22144034422041	94.928765290534	6.76874564442479	62.4238964066079	-42.4446570455066	112.483874997537	-6.87950227574059	-67.526311051208	
3253800000	-6.42699779098511	-32.6386652401923	7.75699308363975	-74.5171222468468	-41.0779177457898	163.083916296217	-6.68232695462784	148.636126082313	
3283650000	-6.37017202358128	-176.831003088479	6.40841119587444	142.857366606051	-36.9197870207559	-147.378722993137	-6.89088744729481	19.9217763259471	
3313500000	-6.12144261510847	53.1257260761722	6.7489274310582	11.8560808946333	-29.3620529944413	-150.41648924714	-7.28618310657557	-122.023678795485	
3343350000	-6.23538769275413	-80.8418545186245	6.49759697197714	-133.737655445537	-37.1459867147317	-158.447742063639	-7.24671510553229	99.4497769111651	
3373200000	-6.20432837322335	136.566146671652	5.62205237314234	94.814973708493	-39.7942175213753	-110.932365383301	-7.07469121861321	-30.4230043596787	
3403050000	-5.54761135927674	11.4452055965273	6.39554308036884	-46.2637269207897	-39.1721732783338	-67.552180613335	-7.98784187846449	-175.66112740456	
3432900000	-6.47933405383364	-128.739932607772	5.12741739940139	176.180366661143	-35.9920726027216	-42.8777041633453	-7.3467581997749	53.3717880003511	
3462750000	-5.77717437885195	93.6093675826175	5.84398694182425	40.7338097767375	-31.1122693716556	-60.60097766339	-8.02487315215075	-84.7269540481416	
3492600000	-5.54367954222211	-36.5998446113916	4.79392046303549	-102.582271595918	-33.6491722340955	-95.0087613118477	-8.01218166250525	134.936324421408	
3522450000	-6.18689698331023	-175.573058377051	4.69481227579578	127.125834853308	-37.319432295653	-96.2735401820907	-7.48226315252485	7.46607856581025	
3552300000	-5.05052970159725	53.1239996023134	4.99927216281185	-17.5481798950116	-39.840330790476	-66.9672117692743	-9.43398677546081	-135.137521045192	
3582150000	-6.15328665754946	-79.80952078046	3.91720432928579	-151.459908187299	-37.4623419317118	-9.1752498220413	-7.61322505248808	86.2387140241533	
3612000000	-5.60269945781139	137.12132598926	4.7442149667851	69.7745854955595	-31.9430801059481	-36.6704359294372	-8.16953636084132	-40.2648655275703	
3641850000	-5.18558286576348	8.22694902775114	3.45724364097838	-71.0531268104471	-50.5038069758715	-46.707339781844	-9.13822742197323	177.156585582487	
3671700000	-6.04932003953129	-127.3309980891	3.89339534503485	156.638704837047	-36.1979390581679	160.61335251479	-7.71890440247952	41.4758304071048	
3701550000	-5.06082607952298	91.6903700450042	3.48458559967892	10.4403398034218	-32.0768324327161	162.196298251642	-9.11738102068342	-87.0931544502726	
3731400000	-5.41686837539025	-34.2834144355729	2.72419699989777	-120.74721881998	-32.0539617435553	-174.548019049597	-8.34712586010307	126.820334845864	
3761250000	-5.54733320860483	-177.191883144526	3.49986615979075	96.3751638268133	-32.8998729626414	-141.160202900433	-8.0537743794996	-0.192841994701615	
3791100000	-5.03875280771964	49.4859601241477	1.94068484350559	-41.6733464427582	-32.2227047629956	-101.820974416098	-8.86084081628213	-136.434921544678	
