!Agilent Technologies,N5245A,MY49151071,A.09.90.19
!Agilent N5245A: A.09.90.19
!Date: Friday, June 23, 2023 13:15:27
!Correction: S11(Full 2 Port(1,2)) 
!S21(Full 2 Port(1,2)) 
!S12(Full 2 Port(1,2)) 
!S22(Full 2 Port(1,2)) 
!S2P File: Measurements: S11, S21, S12, S22:
# Hz S  dB   R 50
10000000 -0.28613117 -18.79389 12.911454 129.96837 -37.037029 52.109425 -0.8178966 -14.811412
59950000 -0.5289548 -115.94182 2.3246124 66.479988 -37.470703 -122.13676 -0.58671987 -105.57779
109900000 -0.52600855 -179.19501 -13.099339 12.413539 -39.803974 -35.540367 -0.71122032 -163.26366
159850000 -0.58248794 134.23656 -38.262371 -136.42743 -37.702194 -24.084913 -0.60842484 156.13721
209800000 -0.7940439 94.769318 -10.536113 -98.60791 -28.16795 -125.6429 -0.031000901 120.37395
259750000 -0.69671762 59.444504 -2.6603475 -122.81153 -65.831635 -111.27319 -0.68680072 91.724869
309700000 -0.53695756 27.661766 3.4020364 -150.94502 -43.695049 -10.167663 -0.14419264 66.710701
359650000 -0.71058965 -6.0622997 7.6295385 -179.8692 -35.460114 127.28447 -0.64838469 42.508121
409600000 -0.6437934 -38.594189 11.32139 147.09897 -35.796738 89.164703 -0.35517082 15.344505
459550000 -0.8885265 -74.204437 13.9339 114.36575 -45.334126 120.76633 -0.60029596 -7.5997858
509500000 -1.5161963 -105.44555 15.199129 86.91449 -35.601818 31.767405 -0.33016038 -31.31163
559450000 -1.4056365 -144.37265 18.045324 57.088146 -37.338287 -33.893852 -0.39647341 -55.925976
609400000 -1.4740425 176.487 19.992331 25.25539 -34.33036 -48.427826 -0.54840809 -82.702797
659350000 -1.995738 137.3519 21.138813 -8.2742996 -33.409672 -72.526268 -0.80598056 -111.21359
709300000 -2.5177245 97.073509 22.067226 -42.426548 -30.776314 -91.984894 -1.1897804 -137.91714
759250000 -2.8451929 54.950027 22.467335 -76.202827 -32.06078 -114.30151 -2.0823104 -163.95697
809200000 -3.4166133 15.876308 22.448883 -106.72867 -27.46434 -157.46587 -2.8031511 168.57716
859150000 -3.8294604 -20.451458 22.084419 -137.3446 -29.072737 172.68098 -3.667592 143.63589
909100000 -4.2771006 -55.940193 21.715919 -163.81296 -27.195971 146.92609 -3.9827235 120.12927
959050000 -4.4895353 -86.651428 21.291725 169.38806 -29.904549 112.45176 -4.1565747 96.110863
1009000000 -4.8848104 -115.98795 20.879961 142.69183 -27.869871 84.812057 -4.0586028 73.913017
1058950000 -5.0372224 -145.10933 20.587118 117.89149 -28.866529 67.404274 -4.0996175 52.370556
1108900000 -5.2584801 -172.58223 20.165108 93.569435 -27.904842 37.194763 -3.9076998 30.846245
1158850000 -5.3343253 160.85764 19.792955 70.157242 -30.098389 28.864813 -3.5980222 11.390924
1208800000 -5.4371233 135.91019 19.318159 46.333759 -29.597342 -1.859081 -3.4455469 -7.251605
1258750000 -5.4682817 109.87046 19.078775 23.686972 -30.269369 -20.848597 -3.2333508 -25.042347
1308700000 -5.5012727 85.296906 18.715734 0.93994355 -30.7153 -35.190639 -3.0929146 -42.804131
1358650000 -5.4829688 60.779888 18.467033 -21.072895 -32.169277 -63.245399 -2.7602453 -59.66626
1408600000 -5.3890619 37.093037 18.205532 -42.811375 -32.81147 -86.125076 -2.5900111 -75.842499
1458550000 -5.3081665 13.494603 18.064838 -64.442207 -31.778677 -94.622276 -2.0585077 -92.937447
1508500000 -5.2934232 -7.8071122 18.467714 -89.914742 -35.969398 -101.89185 -1.4219273 -111.76299
1558450000 -2.7732689 -29.502279 17.676279 -127.83142 -27.303789 -47.933521 -0.14912821 -152.12279
1608400000 -5.1200843 -70.52256 15.388354 -128.0089 -24.404472 -150.88039 -6.6423821 -136.95796
1658350000 -5.59864 -88.810776 16.017696 -149.22581 -27.125967 177.70999 -4.4533076 -148.92766
1708300000 -5.6694393 -112.83463 16.049057 -170.08078 -26.601006 155.44125 -3.7911339 -163.63733
1758250000 -5.7014375 -137.17136 16.032923 168.89342 -27.170841 148.13974 -3.6630707 179.78168
1808200000 -5.9043741 -161.61194 16.038786 147.26831 -27.791098 133.71951 -3.9632072 164.9669
1858150000 -6.6044655 173.39441 15.649782 127.98842 -26.531216 111.23472 -4.3015432 152.18829
1908100000 -7.0143199 150.67598 15.838655 107.83208 -25.818365 77.651817 -4.0892224 139.83353
1958050000 -7.4723048 127.88377 15.985993 85.999527 -25.339569 60.85112 -4.0051398 123.89899
2008000000 -7.8315339 101.28944 16.104309 63.640362 -26.348118 38.488575 -4.1848497 108.51302
2057950000 -8.1985397 76.732552 15.98771 41.678291 -24.648674 22.836842 -4.3960781 91.781563
2107900000 -8.5963411 51.47578 15.948667 19.922758 -26.395102 -4.1470256 -4.5288043 74.307991
2157850000 -9.032136 22.969913 15.994537 -2.0111532 -26.112127 -25.606199 -4.8909507 55.097904
2207800000 -9.9346638 -4.1384215 15.887209 -24.805849 -24.498079 -47.679497 -5.2642841 36.116543
2257750000 -10.860416 -34.672707 15.815779 -47.066875 -24.952644 -76.892532 -6.2494941 14.492531
2307700000 -12.41537 -58.296329 15.582568 -68.835892 -24.67021 -103.24672 -7.7941103 -6.6523442
2357650000 -13.31504 -83.459045 15.46228 -87.494141 -26.280544 -128.22989 -10.343597 -23.783226
2407600000 -12.588783 -117.38188 16.0949 -106.57218 -27.607935 -153.80757 -11.766796 -25.795107
2457550000 -12.751531 -169.46184 16.983772 -132.18915 -29.063295 -160.94334 -10.152726 -48.090771
2507500000 -13.245423 126.85077 17.363718 -163.28119 -27.98362 158.02086 -11.141597 -87.262871
2557450000 -14.672177 31.297413 16.378035 157.66792 -34.741676 92.71273 -17.349302 171.05502
2607400000 -18.449457 -178.34589 11.890845 153.38354 -27.705513 -137.67113 -9.4412346 -18.614952
2657350000 -13.254045 82.37822 14.316077 138.07828 -25.287354 166.02266 -8.1219473 -79.207451
2707300000 -10.752699 33.766754 14.836906 111.41328 -25.746284 128.3878 -8.3120623 -115.69957
2757250000 -8.646656 -5.931952 14.613074 84.516403 -24.43116 101.36707 -8.2177753 -139.6696
2807200000 -6.9607525 -39.626305 13.863041 57.581673 -26.807241 83.648232 -7.7676992 -163.31271
2857150000 -5.831007 -79.199974 12.39983 31.064043 -27.207703 56.665192 -7.1877542 171.01375
2907100000 -6.8143778 -117.37243 10.756366 14.839098 -29.437572 38.291199 -10.143771 145.20116
2957050000 -9.7374029 -144.12527 9.6304312 4.3191972 -28.327406 49.121296 -8.0971956 156.87436
3007000000 -10.583076 -140.80576 10.728192 -11.001159 -24.494322 11.921179 -6.4876628 130.7917
3056950000 -8.8576946 -155.03191 11.068629 -33.625061 -25.174557 -14.89722 -6.626677 110.40543
3106900000 -7.5235996 -173.05945 11.067088 -56.544083 -25.520916 -46.900219 -6.5810595 96.946999
3156850000 -6.4678636 164.82829 10.839328 -78.542831 -24.751202 -61.023453 -6.6057653 84.524391
3206800000 -5.8607078 143.36861 10.475861 -100.67786 -25.640549 -92.282631 -6.299118 72.163368
3256750000 -5.3678498 122.23055 9.9791594 -122.50656 -25.867556 -110.88815 -5.9713655 61.150425
3306700000 -4.6091027 99.992233 9.6814642 -144.11162 -25.353958 -128.41666 -5.8427567 48.913479
3356650000 -4.254159 78.406174 9.2474737 -165.34653 -26.441227 -152.86171 -5.4960251 38.993587
3406600000 -3.7808545 56.649586 8.859787 174.02193 -27.320818 -161.18138 -5.2072096 26.220421
3456550000 -3.3624949 35.02269 8.4780846 153.7677 -28.341927 175.78511 -5.0553346 15.665307
3506500000 -2.9990256 12.43927 7.9705391 133.42441 -27.909931 150.2683 -4.5603271 3.8324068
3556450000 -2.7769196 -8.8222303 7.5806737 112.86002 -29.143463 133.91341 -4.3104973 -8.3919601
3606400000 -2.406898 -31.023567 7.1704392 93.058258 -30.83642 112.88733 -3.9161069 -19.636684
3656350000 -2.3652301 -53.787876 6.6773643 72.490585 -32.817245 101.7301 -3.8394713 -31.311682
3706300000 -2.5377119 -78.575409 6.14714 50.430023 -33.480778 109.6581 -3.4518166 -44.441746
3756250000 -4.3476138 -96.781113 4.4024429 33.760624 -26.648481 101.20452 -2.9918611 -59.747673
3806200000 -3.4448962 -106.51821 4.7404995 22.671551 -24.989454 61.04858 -3.4662549 -73.938713
3856150000 -2.8235259 -126.91821 4.8756351 4.0767465 -26.028564 33.693394 -3.5885854 -84.935349
3906100000 -2.4852662 -147.97557 5.0349021 -15.526864 -26.184011 11.49528 -3.4875515 -98.185753
3956050000 -2.3117647 -170.78181 4.7777719 -35.490078 -26.794472 -0.66038197 -3.4245253 -112.54125
4006000000 -2.4338477 165.09023 4.3448877 -52.894779 -24.788786 -2.1410365 -3.8211997 -128.75189
4055950000 -2.8102131 147.31071 5.024579 -67.124741 -22.017817 -39.665821 -4.7143431 -135.30859
4105900000 -2.7600131 128.66078 5.3829165 -88.288055 -23.885929 -70.301071 -3.961767 -144.71686
4155850000 -2.5611277 106.36385 5.2470984 -111.22931 -23.71122 -88.356758 -3.4261086 -161.29713
4205800000 -2.3911908 84.555611 4.9542494 -129.16336 -24.423084 -108.7963 -3.4751148 -179.27283
4255750000 -2.5235252 61.274406 4.8868346 -142.8743 -24.97245 -123.95941 -4.4115591 164.84938
4305700000 -2.8408716 38.226997 6.0857682 -160.70535 -22.401987 -137.99927 -4.6740332 157.28546
4355650000 -3.0386724 18.120691 6.6815391 176.72581 -22.114412 -160.56625 -3.9897695 142.45763
4405600000 -2.9242291 -6.8139524 7.04319 154.01706 -22.13213 178.04097 -4.2520814 126.39909
4455550000 -3.1032031 -29.676445 7.3842096 133.5553 -20.985678 161.60904 -4.5134983 110.71558
4505500000 -3.1542194 -54.808475 8.0531693 110.91508 -21.549549 133.10985 -4.8195348 94.825111
4555450000 -3.860435 -82.009972 8.5031204 88.48156 -20.905777 117.71464 -5.156383 79.023987
4605400000 -4.7282872 -112.02346 9.2210684 61.935608 -20.309128 92.407608 -5.6294007 63.14333
4655350000 -8.6850348 -141.09128 9.3274975 29.734417 -19.934603 73.473099 -6.0097246 46.484348
4705300000 -8.5249672 -122.75843 7.217948 13.63454 -18.684671 56.414253 -6.1550751 19.904882
4755250000 -6.7085915 -158.16168 8.9715233 -0.50803608 -16.948772 30.81945 -8.1172247 -9.3093452
4805200000 -8.1115446 167.49063 10.314531 -26.770853 -16.01152 0.1497836 -10.595716 -49.09903
4855150000 -11.196066 133.81796 11.310024 -57.558529 -15.37771 -30.035675 -12.61555 -111.83705
4905100000 -17.088104 105.29962 11.798483 -89.786842 -15.24649 -59.226551 -10.416319 178.9462
4955050000 -24.982666 -173.4061 11.796112 -123.93057 -15.605772 -91.867119 -6.7706141 130.23871
5005000000 -14.379594 -173.98116 11.309053 -157.83022 -16.050369 -123.87375 -4.2985873 95.37484
5054950000 -10.37698 156.53584 10.466461 168.64494 -17.531157 -151.87541 -2.6477492 66.94268
5104900000 -8.3489332 129.80289 9.2783184 133.59027 -18.196121 -177.2169 -1.9234762 40.830982
5154850000 -6.466454 107.23357 6.5203552 97.311699 -19.374027 153.68274 -1.601386 16.112654
5204800000 -4.6578169 77.605942 2.8684158 78.883896 -20.263056 130.58006 -1.8978332 -5.3341675
5254750000 -4.0003114 47.359196 2.0183542 65.111481 -21.796347 102.62518 -2.6999652 -21.849199
5304700000 -3.6190126 21.120266 1.0532892 40.188042 -23.204777 78.527893 -4.0234156 -32.777725
5354650000 -3.2373724 -2.6505253 -0.99563092 16.019505 -26.016375 59.568069 -4.2974739 -35.108871
5404600000 -2.8928401 -27.745823 -3.2354336 1.2874036 -29.134115 44.108616 -3.2698348 -41.173565
5454550000 -2.915333 -53.122719 -4.1354589 -10.279364 -27.193897 15.747011 -2.1590269 -54.537014
5504500000 -2.647126 -76.346687 -4.1520996 -26.817017 -28.900887 7.3759828 -1.5148015 -71.171371
5554450000 -2.8117974 -99.209801 -4.3641558 -47.909157 -30.774399 -4.7022443 -0.98373818 -86.742088
5604400000 -2.7605126 -123.68638 -4.7726879 -73.085938 -30.196428 -11.861619 -0.85888475 -102.50249
5654350000 -2.606329 -144.73131 -6.4918289 -94.76976 -31.044615 -32.576973 -0.47226843 -122.27887
5704300000 -2.6615639 -168.55136 -7.1948767 -107.00007 -27.924664 -55.072285 -0.46790659 -142.60934
5754250000 -2.5814481 168.7027 -6.7991295 -126.14648 -27.623539 -81.966103 -0.43663666 -174.51453
5804200000 -2.6165524 145.48907 -6.9932389 -152.79181 -29.863546 -132.82613 -2.5794911 150.32678
5854150000 -2.5397182 120.98547 -7.2641644 -179.06993 -34.468227 -137.60204 -5.0193658 122.10212
5904100000 -2.451998 99.035576 -7.8361268 153.44904 -35.385399 165.00888 -6.1146088 87.031609
5954050000 -2.5119061 73.787498 -8.8031406 121.04826 -40.94622 -160.24969 -6.1743464 42.383427
6004000000 -2.5253038 51.191483 -10.972075 89.664078 -47.105556 -161.81325 -5.7806129 -1.1679379
6053950000 -2.3044696 26.661898 -12.956993 61.426712 -39.724915 165.36674 -4.3410196 -29.666786
6103900000 -2.0633755 2.6447833 -15.920017 29.711262 -41.786072 -119.57454 -2.8601062 -58.649017
6153850000 -1.9916402 -19.956726 -19.060993 1.7519428 -41.80286 -147.33743 -1.9035685 -80.212982
6203800000 -1.9874773 -42.219013 -23.763884 -27.341063 -41.556625 174.82628 -1.0726999 -101.33044
6253750000 -1.8832941 -64.944977 -30.202637 -56.444576 -37.028667 160.41385 -0.61334896 -119.46614
6303700000 -1.6951464 -86.495956 -37.026043 -105.39448 -39.432854 126.01189 -0.78818268 -138.04285
6353650000 -1.5336467 -107.21028 -54.441711 136.24182 -36.413822 147.42973 -1.2984411 -149.86179
6403600000 -1.6679599 -128.15588 -41.401726 72.238701 -35.435707 130.7449 -1.495239 -161.0312
6453550000 -1.8953251 -148.22417 -35.276695 73.708679 -36.478607 104.26703 -1.6253322 -170.85353
6503500000 -1.5439628 -168.19853 -31.675928 81.23925 -35.638855 99.928658 -1.485581 -178.55733
6553450000 -1.5118508 171.32741 -29.279297 51.805729 -33.910137 70.119186 -1.7671934 171.19357
6603400000 -1.5042877 151.73991 -26.154835 36.930683 -33.086529 52.287197 -1.9986902 162.89272
6653350000 -1.4006168 132.68741 -23.410316 5.5803947 -33.785561 31.718271 -2.4663148 154.06447
6703300000 -1.4864169 112.80437 -19.372438 -33.218334 -29.419363 -1.2800763 -3.4409597 148.15154
6753250000 -1.5096614 94.238525 -20.583288 -99.547516 -29.669115 -29.38722 -3.0429535 156.55948
6803200000 -1.4437232 75.23085 -28.193996 -134.07848 -31.982664 -52.752502 -1.4228445 146.1245
6853150000 -1.3477983 56.727303 -34.278461 -141.14537 -35.123016 -61.143036 -0.95460051 136.43576
6903100000 -1.3313376 38.366783 -33.688038 -139.77965 -35.032543 -94.581291 -0.84623337 127.88921
6953050000 -1.2813723 20.063148 -33.892178 -126.86929 -35.50153 -97.860329 -0.64086193 119.10252
7003000000 -1.2650285 1.8305987 -40.635532 -132.02138 -37.80529 -135.76077 -0.73210353 110.83401
7052950000 -1.2254456 -16.796392 -36.886322 -148.80525 -35.880173 -121.31669 -0.53710836 103.69206
7102900000 -1.1143299 -35.27454 -37.313023 -151.93065 -39.625538 -143.81406 -0.73100781 95.896942
7152850000 -1.0401005 -52.481609 -37.343784 -163.66495 -37.356857 -158.87485 -0.63425255 89.232536
7202800000 -1.0143257 -70.767601 -34.85326 -166.64236 -36.894138 -167.98544 -0.5973497 80.450996
7252750000 -1.0161178 -90.114044 -39.143387 178.76588 -38.926899 167.02672 -0.80985492 74.788582
7302700000 -1.0297563 -107.05622 -34.587273 175.98398 -37.411354 160.16197 -0.60572708 66.747887
7352650000 -1.0668279 -126.03247 -37.893124 -169.65863 -37.421616 145.52704 -0.71244991 61.059288
7402600000 -1.0662693 -143.53282 -35.856617 -118.02172 -37.81786 128.61736 -0.74843508 53.03717
7452550000 -1.1346689 -161.09647 -27.80624 -163.15266 -38.868473 179.97212 -0.73316646 47.515301
7502500000 -1.104791 -178.10515 -27.68257 174.44098 -42.9431 116.93993 -0.7179054 39.204407
7552450000 -1.0944175 163.48647 -26.568468 150.5015 -45.650311 144.78453 -0.75271845 33.137066
7602400000 -0.9705283 145.28806 -25.556763 141.31396 -38.195919 174.55035 -0.76244181 25.378443
7652350000 -0.8552615 126.51447 -23.251692 127.20808 -34.092369 150.4673 -0.74136764 16.590193
7702300000 -0.92197549 107.84363 -18.903711 113.19856 -34.910954 135.89972 -0.98567635 8.6393061
7752250000 -1.4925977 86.268433 -12.880797 76.32206 -24.37089 112.15798 -1.6319838 2.2318792
7802200000 -2.1198463 75.685051 -12.833189 12.357399 -25.441692 46.588787 -1.8245575 -0.15176173
7852150000 -1.5931218 60.557968 -16.045345 -23.245699 -30.773462 3.3297968 -1.5575913 -8.0550013
7902100000 -1.486472 44.839603 -18.564619 -39.499329 -30.120319 0.56874198 -1.8464305 -16.086121
7952050000 -1.4366301 27.949594 -19.67577 -40.140221 -30.223631 6.4551616 -2.3736777 -24.043997
8002000000 -1.5620874 10.547808 -16.049519 -42.767269 -25.051504 -5.1710134 -4.0140214 -26.425701
8051950000 -1.5974588 -7.4161868 -12.103486 -79.53653 -21.845573 -51.296818 -2.9425812 -15.901343
8101900000 -1.5460541 -22.675991 -11.977689 -112.6391 -20.440651 -89.815659 -0.80094314 -26.593468
8151850000 -1.5478789 -42.929268 -11.173081 -132.81328 -18.227171 -115.45577 -0.099563815 -40.567978
8201800000 -2.0293422 -65.745834 -7.6604872 -148.34854 -13.464181 -135.42415 0.88796723 -57.275063
8251750000 5.5248728 172.90492 11.601038 -164.15567 9.0632572 -166.0571 13.852921 -112.94834
8301700000 0.74360007 -77.603722 -8.6612625 18.877022 -10.777531 4.2342281 -2.2166939 -28.752159
8351650000 -0.33082759 -103.49597 -14.729888 19.115133 -17.023401 -11.450453 -1.9605769 -52.248062
8401600000 -0.52723509 -124.51183 -16.53734 4.4709601 -20.162056 -28.917013 -1.5578804 -64.860779
8451550000 -0.77557474 -145.83731 -18.205114 -11.588099 -21.253813 -44.853756 -1.6791335 -75.949646
8501500000 -0.99703264 -167.338 -19.646738 -32.693768 -21.849459 -58.395721 -1.7167656 -86.495224
8551450000 -1.0206836 172.72295 -20.568851 -46.513569 -22.381483 -83.913399 -1.786791 -97.98793
8601400000 -1.2018844 149.11029 -20.7122 -60.008656 -21.901609 -100.75764 -2.1710041 -108.39632
8651350000 -1.3903716 128.02979 -20.983639 -74.278938 -21.034616 -124.07066 -3.081219 -119.23957
8701300000 -1.3407693 105.04243 -20.815685 -92.708046 -20.481668 -150.27586 -4.5109663 -127.91671
8751250000 -1.3223176 83.778183 -20.633209 -120.01051 -21.446217 -174.02718 -6.4377632 -127.55022
8801200000 -1.3296529 62.441776 -20.632456 -148.20264 -21.386868 147.19449 -6.9864082 -118.21205
8851150000 -1.3129581 42.838688 -22.431744 -178.41805 -23.809935 116.11262 -5.8154249 -114.47111
8901100000 -1.511819 22.520735 -24.039883 163.22223 -24.849258 96.654106 -4.6776919 -120.5793
8951050000 -1.5327437 3.2122843 -27.094366 138.2942 -25.406828 68.25872 -3.9555702 -125.3102
9001000000 -1.5353249 -15.299064 -28.127468 114.06492 -27.965204 42.807209 -3.0599728 -132.86139
9050950000 -1.5791774 -33.077774 -32.065987 86.498581 -30.379072 26.602037 -2.6317842 -140.45505
9100900000 -2.0053635 -51.863338 -36.717842 12.327016 -29.233702 -27.721413 -2.4759753 -150.56224
9150850000 -2.35779 -68.088364 -30.225166 -115.28255 -26.394379 -71.36071 -2.46243 -159.38847
9200800000 -2.8711176 -80.445457 -23.71632 -170.16347 -25.017189 -127.23558 -2.468889 -166.09064
9250750000 -2.6119478 -98.331261 -22.112209 144.87619 -27.386812 -174.0677 -1.9546441 -173.24525
9300700000 -2.2078698 -116.142 -22.795258 109.60463 -28.91737 141.63261 -1.9242032 179.26303
9350650000 -2.5203726 -135.77791 -23.963974 89.219551 -29.210789 124.88039 -1.8037276 170.86543
9400600000 -3.0237765 -158.99219 -24.496065 68.337196 -28.885437 109.05585 -1.675298 162.11279
9450550000 -3.3901961 178.60196 -25.244804 53.413704 -27.874008 85.522911 -1.7191234 154.15251
9500500000 -4.3900609 154.0273 -25.965477 34.704655 -28.702866 79.684509 -1.7747672 146.50737
9550450000 -5.6395044 129.0614 -26.38855 26.862495 -27.540562 66.083916 -1.8781648 138.46976
9600400000 -7.8967304 103.92223 -29.341749 10.869619 -27.725498 56.230831 -1.7445807 131.59726
9650350000 -11.155879 87.960167 -27.333422 44.374538 -26.191175 51.394871 -1.8004056 123.95209
9700300000 -11.748158 94.867561 -21.672714 31.578831 -22.642231 41.924881 -1.8331918 116.63773
9750250000 -9.6986017 89.741745 -19.117126 10.770525 -20.273003 10.952139 -1.8128235 109.52757
9800200000 -7.505827 68.988419 -17.41132 -15.402211 -18.590565 -10.410972 -1.9545827 102.18109
9850150000 -5.9633498 45.160797 -16.446714 -35.127583 -17.195665 -35.994877 -1.9869781 95.089333
9900100000 -5.7186923 21.861828 -15.454654 -58.153305 -16.511278 -57.339977 -2.0586295 88.108856
9950050000 -5.6812954 2.674866 -14.988486 -84.521507 -15.860863 -83.594673 -2.3166542 80.599648
10000000000 -5.8746037 -14.72623 -14.516724 -105.76518 -15.971536 -107.6105 -2.4932494 74.401932
