!Keysight Technologies N9916A: A.08.01
!Date: Thursday, 22 June 2023 12:46:39
!Timezone: (GMT+01:00) Amsterdam, Berlin, Bern, Rome, Stockholm, Vienna
!Model: N9916A
!Serial: MY53104702
!GPS Latitude: 
!GPS Longitude: 
!GPS TimeStamp: 0001-01-01 00:00:00Z
!GPS Seconds Since Last Read: 0
!CHECKSUM:0566971569
!Correction: S11(Rdy)S21(ON U)S12(OFF)S22(Rdy)
!S2P File: Measurements:S11,S21,S12,S22:
# Hz S DB R 50
30000000	-0.211550191601626	172.349114365724	9.50471476109516	110.791839147365	-53.8347673573915	-73.1025760242825	-0.322241885067198	163.397688483167	
59850000	-0.497323844573734	-3.90943794636074	5.93828001636224	61.4196805313053	-49.2150876572915	30.1652255074802	-0.726926094057888	-7.98881155618082	
89700000	-0.215908464258134	-167.061549634158	-4.63370921477722	46.2480860276514	-51.2108803094273	-46.4131624269675	-0.408324118125637	-175.928141878382	
119550000	-0.489979066400911	37.2299940272469	-13.8862000540273	7.89417282418873	-61.2096254234504	11.4161756734154	-0.599915480698152	23.6323982142491	
149400000	-0.101511805859576	-113.88448116227	-44.9768453404762	-72.8513154931654	-56.0469341197573	76.8943019048511	-0.279907084769665	-130.338763388734	
179250000	-0.708623379878478	98.0669768198833	-20.8119227538418	-48.2474317057027	-52.2499759161431	49.4666449809965	-0.704235767636388	77.5479032258532	
209100000	-0.214817713109511	-48.4111305898167	-12.0846489728691	-55.7650206829825	-46.4752697773504	89.3605443599939	-0.324833315881102	-72.0559503911324	
238950000	-0.724961453784243	165.895844673178	-2.10833275788261	-64.6021490480855	-41.456083825592	116.353938437824	-0.75133116056853	140.226250062651	
268800000	-0.465626255274106	22.3666987368244	-1.09659530170903	-87.2059622278135	-39.0188176197401	145.359122702004	-0.465616538811931	-5.82570515214898	
298650000	-0.677372244157863	-121.73947536658	4.88184830986462	-84.2304712156013	-34.9934308825345	165.177128042142	-0.848291353045381	-152.092536818562	
328500000	-0.882860679978436	94.610866102427	5.76961908075397	-117.599133335753	-32.7214394676457	-173.871620038859	-0.566839409620405	63.0269274584066	
358350000	-0.674502302351115	-46.7601902658421	8.7250980720488	-108.182666134046	-30.9225890101639	-154.355253035238	-0.695802248225196	-80.9141774472372	
388200000	-1.14735987128834	167.689019194913	11.601837985792	-145.416865818536	-29.4791479893693	-134.322469539338	-0.823639362596415	132.934389629467	
418050000	-0.634916504887531	25.3853410513837	11.5614251828064	-138.195123106237	-28.8729465032038	-110.582070178553	-0.646725475842306	-8.31365627069262	
447900000	-1.45598817889031	-119.327154247914	16.606607002201	-165.856193425407	-28.5984994904492	-86.5245522088386	-1.00805453337653	-156.260356771726	
477750000	-0.898910297241422	96.7922555711881	14.2047953791946	-172.187639313132	-29.0031134151646	-56.1607415493921	-0.632822847504935	62.6817693720639	
507600000	-1.42473034357394	-51.2503631350648	19.721849699272	177.088124346123	-29.0148350439049	-28.1547120185152	-0.971651893940587	-84.0584810219496	
537450000	-1.92438511473623	167.957778645833	16.8131857269954	152.287195141332	-29.7774067806409	5.20352212645986	-0.93234117831478	132.86341324468	
567300000	-1.564040301242	22.548868256442	20.1909561329679	159.175378207565	-29.9300892457141	36.5128903004037	-0.808949817175372	-10.935879686835	
597150000	-2.55172287577418	-122.405353381336	20.106374750164	119.157842808487	-31.599262287055	66.3428316362408	-1.60582285508633	-159.450870682385	
627000000	-1.64454966955731	90.4992145136213	20.5302885151652	127.801848443526	-31.9498453260789	111.495777317789	-0.811969805209025	59.3014640166496	
656850000	-3.85884499238111	-56.9175484357682	23.0408058570363	90.7782080679845	-31.6528882428805	148.078535075828	-2.14821449924213	-92.9770676527139	
686700000	-2.33605852309625	159.195613702151	21.2471555769713	93.1442558230044	-32.7534605736967	-175.752565647445	-1.52805449082294	128.137055939689	
716550000	-4.3861665346202	2.26810531047999	24.6939464420042	67.4254199726704	-26.5209092028618	-110.737926015374	-2.11161864887244	-29.8568336290717	
746400000	-3.53495558470065	-131.674487383732	21.6473019782849	56.3208789908812	-28.9792963483964	-103.476804783373	-2.66614270838248	-164.032935141005	
776250000	-3.80989652185119	66.1956266086247	24.8251575325407	46.3387602750522	-29.0490576513854	-67.839453766879	-2.21394263199338	39.8946549112977	
806100000	-5.0551291885318	-65.5603680489127	22.2627850361254	23.5435175222256	-28.7369850810179	-36.8220632287717	-4.39914711427409	-96.9807807885313	
835950000	-3.81672524635439	137.687825163804	23.7161449261982	23.4908118931586	-28.7834500400867	-3.34658277007768	-2.95071357219444	113.21969350939	
865800000	-6.74713772081045	-2.91432749337985	22.5480654898587	-5.39749732465647	-28.265328468243	33.6673165028116	-5.95892685581221	-36.6177814066995	
895650000	-4.36250448384402	-142.144948734867	22.3616382800735	-2.02366137581023	-27.5691894343438	65.7703314493262	-3.86566190738148	-169.613941384839	
925500000	-7.9042355345116	57.4766621665531	22.9708370969207	-27.3523407366264	-27.0694557030013	97.6468410883771	-5.68281335130577	24.8447991956111	
955350000	-5.27050984173958	-64.4544378869353	21.2184635458418	-27.7339171839352	-26.675762546473	131.86589654447	-5.20530236318022	-94.3222708689458	
985200000	-7.00058471309137	128.863290932679	22.9886671527768	-44.1133455361305	-26.1288560019318	164.16875344869	-4.89387549384305	99.9664893017121	
1015050000	-6.41104074355479	9.24856677576041	20.5431698980173	-53.9184075900459	-25.8465538958883	-161.617031388056	-6.00298956989892	-24.0353416063549	
1044900000	-5.89250813292065	-145.496655762892	22.3376143544031	-58.0632009937166	-25.5728390188127	-128.696050598754	-4.53731190551923	-173.675309084562	
1074750000	-8.30947105058272	80.7160882575575	20.3617291079047	-78.4110688982973	-25.1919594126451	-96.3647303359733	-6.64526328315304	40.5175086448425	
1104600000	-5.26834446356071	-54.2557570963861	20.7674087043921	-74.4892623933053	-25.0483883353884	-69.473665899753	-4.71284989073759	-88.6465961873048	
1134450000	-9.0534282829108	154.294026898536	20.7381033523186	-99.0804413391307	-25.5682276476355	-48.5083648398324	-6.11576799649735	108.831403289526	
1164300000	-5.97100317364906	29.33243592727	19.3425895606609	-95.7896507299849	-43.7594141158696	-27.2251659134825	-5.14152891202498	-12.0858402301328	
1194150000	-7.95053623074429	-122.58218048899	21.0816881088757	-112.316542798731	-24.7325606649264	71.6232653908412	-4.82968926126679	-166.630759047643	
1224000000	-6.98895843111032	112.715332305046	18.5094035961604	-118.471383557789	-23.993665388712	90.0368799910227	-5.53244536758576	62.1679824256239	
1253850000	-6.40790880259405	-36.568235117679	20.4135033825158	-121.890051020494	-24.1918044165017	119.269249970366	-4.26716987018524	-79.6481157370897	
1283700000	-9.27320517977033	-162.777359053884	18.3402569279787	-139.949598602929	-24.5348496334993	150.699066933602	-6.31581201094844	136.551068352634	
1313550000	-6.20179644782982	60.8212473460159	19.0228967547159	-133.033445035371	-24.8271701639898	-176.987989928471	-4.40894790672069	5.47199850762865	
1343400000	-7.63790330616389	-74.9792979056664	19.2476413085382	-156.746909673503	-25.1868236184505	-142.969042987566	-4.55575635873261	-140.654867913838	
1373250000	-5.69421078295988	148.193976179259	17.9551544787873	-152.229600454112	-25.5977616387088	-110.483293654502	-4.27692100096311	87.9487017466826	
1403100000	-6.86284301223853	-1.15524306489039	20.0474305290893	-169.378875370681	-26.0028022538822	-75.6471525422895	-3.71106993476242	-60.0309687040629	
1432950000	-6.34388224234426	-128.489603253575	17.2561565954876	-175.241291246166	-26.5404969236973	-41.0210155753705	-4.30961325881146	165.684421639116	
1462800000	-6.1996151911865	87.1902252924841	19.4142778974366	-176.173164039434	-27.1356395277946	-6.47455498936846	-3.5313624004506	23.1753179050547	
1492650000	-6.93305691812865	-44.4737760021187	17.4526089829748	162.488372137703	-27.5316540437517	30.2399638490084	-4.02275112848711	-116.800171551033	
1522500000	-5.57505908979029	179.973727962251	18.0582635374034	170.072549115402	-28.2103506153379	65.592661298361	-3.51952645415545	107.534025098794	
1552350000	-7.24259013819775	38.9425339006344	18.5478815114242	142.438255492385	-29.3147420938361	102.229892571249	-2.93851034258484	-43.5223439008017	
1582200000	-4.95096206698645	-92.3153704803234	16.770567306162	148.016652526284	-31.1251724326786	130.09266347855	-2.92531488326366	178.3608828947	
1612050000	-6.09026436220614	107.223323046108	16.9987427074109	136.137814232978	-39.3824143771661	-141.180314481352	-6.42961433876268	33.4660736114807	
1641900000	-6.99269057497867	-15.0747917898593	15.7751776534384	131.812364647993	-30.2861481934512	-115.202668388728	-6.02049834687142	-87.8085312888492	
1671750000	-6.28350176628684	-154.231320544674	17.764431907594	132.849905313069	-29.8280944979479	-87.8595184019769	-4.70041462827405	137.098816090199	
1701600000	-8.56922334562417	69.522481559319	16.615508887381	109.732916122714	-30.0265630390628	-51.5361875250335	-5.05909569396466	-11.9684612096396	
1731450000	-5.98206929602935	-65.1187038485199	16.3712395633393	117.427251112813	-30.3943594017695	-9.95540689255234	-4.40990750741336	-136.28715525833	
1761300000	-9.06702247435607	158.510374423509	17.7088261457252	96.3374676132206	-27.3475309458163	29.6607278801817	-4.54574273892845	70.0332881960272	
1791150000	-6.90167396771044	21.2996056429732	15.6021127438774	97.4024622512612	-28.110356571743	54.4734670286728	-4.52620701854535	-58.648417314443	
1821000000	-7.72827407099323	-123.044545291739	17.763198779925	89.7520352718347	-28.242483733738	89.9909941523895	-4.21399826101016	158.925602907903	
1850850000	-8.2158692319262	108.240558043911	15.7888285330034	76.9552128064193	-28.0140618401747	121.76952074951	-5.16993122836607	17.3032565348336	
1880700000	-7.04022037899842	-37.6936895800254	17.0126697654786	79.864723708755	-27.2210837243655	155.217598057126	-4.25362073329586	-116.059353556575	
1910550000	-9.46860105932879	-168.59516401949	16.7009840277116	59.5934839159258	-26.5415695164596	-166.632921651436	-5.1162309260763	96.8411914197017	
1940400000	-7.54693961742281	51.3555761710946	16.1683580864824	63.8236275103536	-25.6486503323184	-133.781155948933	-4.80815174532248	-34.5560159117117	
1970250000	-10.0768100488553	-90.8249508081458	17.3473170929182	47.3838028309095	-25.7664386424484	-100.458178658553	-4.61912058035142	179.609449245052	
2000100000	-8.32996585923319	136.35557316196	15.8106859383571	43.7786829267786	-27.4412728150077	-46.0253363682957	-5.57779789881766	47.4007444755719	
2029950000	-10.0276037547641	-13.3265736207129	17.389639023417	36.7817824005299	-21.0063317309811	-8.20963662766785	-4.69017789062593	-97.2790102836197	
2059800000	-9.8159831639024	-141.31551731363	15.915707052161	24.3930316450918	-19.1874353140777	10.3215964220214	-5.96905921968201	125.322783896863	
2089650000	-9.66892929999392	74.6628282388511	17.0023383546239	25.2184993786654	-18.1766792026399	31.115178390688	-5.5043610780121	-13.8698600393093	
2119500000	-12.6762081364145	-62.9979658617553	16.6046580183816	6.34056697368614	-17.6277117227795	48.6271620868403	-5.78230537408323	-161.120041636304	
2149350000	-9.43127902516266	157.184983739298	16.3184417632522	7.61434086827487	-18.399103786751	68.0405929210034	-6.44438068990698	73.3806999421282	
2179200000	-14.7395236292047	8.56404731553404	17.3470411673414	-8.26473711273709	-19.570105134183	90.2411326053607	-5.98061391352564	-84.8385299230746	
2209050000	-10.9938161185492	-122.150587459725	15.9472616241036	-11.8009776543077	-21.174770736641	116.075005091762	-7.003470056597	149.841262752284	
2238900000	-13.4367010394296	84.2974278156514	17.262983699722	-20.2024290627965	-22.8159346248208	142.614617307848	-6.69087856116336	1.74472392074271	
2268750000	-15.1586600216639	-45.6178836192577	16.12500929134	-32.5632664273742	-24.8265717951607	172.495226353039	-8.12216956939884	-142.650685466806	
2298600000	-11.728233226023	165.41748324613	16.6429851192173	-34.902849096793	-27.8778204260474	-154.450597277896	-7.9613503846107	90.4393650653243	
2328450000	-19.7081337064676	29.0413369385923	16.497530805764	-49.4230909416186	-29.738520604749	-109.654185634949	-8.70796973976006	-72.5255587229368	
2358300000	-13.3575559136061	-118.28457325007	16.1745841336035	-51.2721011073565	-30.6760492543466	-67.9268858233401	-9.38617904587556	171.738164003316	
2388150000	-17.2913382121383	76.2829490188706	16.5973295025436	-63.3046181251244	-31.0586875638242	-29.1349535971263	-9.73605800388492	11.5035687963541	
2418000000	-16.2854353081704	-46.7376371307254	16.0871310394916	-69.9409099823906	-31.1092461793036	5.80429389910203	-11.0616769658863	-119.653907057922	
2447850000	-14.2283601373811	147.621476148584	16.7988045170785	-77.600404940138	-31.2734768430424	36.8352034603069	-9.90438039917185	100.518672142014	
2477700000	-18.8345040466307	4.00672849090409	16.2989719369499	-89.0350276057644	-32.4482606854552	63.4352257447111	-12.0399385639672	-55.4597299328422	
2507550000	-13.7435483416972	-145.76633053752	16.7903275921257	-96.8226069472959	-34.1812592632343	95.9566625010798	-10.8034597180665	177.455249769531	
2537400000	-15.9346286706242	51.7786226731613	16.4525983919605	-108.767004200641	-35.5660395143913	130.023804793489	-11.6531105118692	13.7469004781227	
2567250000	-15.2407061877293	-78.3565460915328	16.5353038423655	-117.437111594672	-40.4347537546808	167.382987303358	-12.9434022358706	-121.422145355672	
2597100000	-13.2533465365401	103.312564980562	16.1567459183762	-131.838864316891	-44.1365964054337	-139.121179590718	-12.126313850246	72.228293958926	
2626950000	-16.5794357218809	-40.0263536471286	15.7293952398047	-144.245211435079	-45.0603930764499	-89.9881970740759	-16.058046620145	-102.131599294522	
2656800000	-16.8002073642654	113.766139397328	13.3602043811532	-161.681613145929	-43.1381358046546	-19.3154575217813	-16.2701937777705	69.9650323952441	
2686650000	-21.5353119815	-155.649641303896	10.693962591239	-152.030269548468	-44.4617711680794	18.2310771571514	-14.8103596439995	171.860641719422	
2716500000	-13.8423473586318	21.0939091387521	12.3358823861073	-142.71388250678	-43.964377153196	70.6066575489614	-13.8188855578414	-8.92118711107855	
2746350000	-14.3540452184851	-167.021403438663	13.4580495835239	-154.425448908171	-44.894976700024	128.350320745345	-12.3094838916096	159.351422454939	
2776200000	-11.0044831760896	71.529540343217	13.7714096064581	-161.093563583545	-42.038098215493	-175.165943274603	-13.7288380751249	36.2199360526692	
2806050000	-12.9392259730971	-95.5035302283722	14.1963297873011	-174.037844025199	-39.939861275653	-138.726567706772	-12.1043065563032	-144.624027374271	
2835900000	-10.8338386774161	134.635396697097	13.6470061925507	-179.859876806348	-37.6677512777163	-100.420921276643	-13.6071307153105	87.4766700098546	
2865750000	-10.5114064016069	-7.68586257791635	14.1926629854138	168.935912380078	-37.0174806311438	-59.5058054501432	-12.8038638420688	-61.7697522105741	
2895600000	-11.5532782969619	-156.316356392073	13.3128907195637	160.187816932373	-29.7183832308536	-40.8164459612787	-11.9129130253261	145.083299556218	
2925450000	-8.71574792700061	78.7461219562919	13.7423884953713	153.975437940517	-34.6577677711253	-40.6109373712465	-12.5417099174603	30.4474851357632	
2955300000	-11.1200606324402	-72.0045706105062	13.1560366270237	143.406306616413	-38.0842507769649	-4.8945927071062	-11.83234392073	-138.576996715587	
2985150000	-8.98833407345843	157.78231000399	13.1229151869673	138.310484493908	-41.3795098269189	44.1834713864463	-11.7654226601599	102.677192855337	
3015000000	-9.72780264471091	18.2999902742798	13.1035378564971	126.477045994172	-44.2602118688383	91.0048377934426	-11.4264937451531	-46.9774454689454	
3044850000	-9.68596015499603	-117.50864681292	12.473337981842	120.686884014994	-44.5738830820993	124.9540349111	-11.8995435546529	171.413932517534	
3074700000	-8.09480919000696	102.156623368219	12.6885578832447	111.846830548512	-44.8938063924458	-160.053375404764	-10.3905772464878	43.5745520946332	
3104550000	-9.28100358216204	-28.9957457638015	11.9574209850984	103.219080335464	-44.6294150203366	-121.840786044895	-11.4428824146806	-105.228688391564	
3134400000	-8.15770981214873	-171.694387666347	12.2849398285201	96.9714689905056	-44.2398353230851	-63.0026250189933	-10.1744305473127	124.819427410629	
3164250000	-8.20966965870967	54.4801023820394	11.5355852653996	86.2977342206466	-47.6735442008578	-23.7966238340842	-10.3091197022324	-14.0750412944449	
3194100000	-7.65567940043252	-76.0497632248967	11.3869772723221	83.2711013911381	-49.7261590176368	66.6614293663814	-10.4422206183751	-148.934928159385	
3223950000	-7.62059563697485	135.793580223332	11.5039940463267	70.0019561376739	-42.4446570455066	112.483874997537	-8.99164304235316	70.3710302337971	
3253800000	-6.75899644810919	11.2897371370561	10.5635913032164	65.9645513288217	-41.0779177457898	163.083916296217	-10.1666179903359	-59.7908254763643	
3283650000	-7.31132119855427	-133.951585433549	11.2391493187132	57.4662728605945	-36.9197870207559	-147.378722993137	-8.92068059247829	155.235382284669	
3313500000	-6.4193538824451	90.9333007191283	9.91751124292899	48.1857939990973	-29.3620529944413	-150.41648924714	-8.55750417910419	24.4000823244636	
3343350000	-6.09643884185593	-38.5845921860561	10.3724848124889	46.6133575871509	-37.1459867147317	-158.447742063639	-8.78577857165567	-109.260812981303	
3373200000	-6.81311250713252	175.53350874318	10.0287450664163	30.8900243166867	-39.7942175213753	-110.932365383301	-7.97311441873138	103.539706740938	
3403050000	-5.11698727459666	47.0334583623761	9.1593803426747	30.9260860175427	-39.1721732783338	-67.552180613335	-7.79341056960802	-19.2685727715472	
3432900000	-6.30762014038235	-89.1845272924403	10.0905397767862	19.8196803049819	-35.9920726027216	-42.8777041633453	-7.78384461466835	-166.324832384162	
3462750000	-5.41287297144658	128.514665661545	8.52797185828351	12.0038861391866	-31.1122693716556	-60.60097766339	-7.32592259139506	62.6330766599469	
3492600000	-4.95863905124444	-3.89116822301878	9.25520732429986	9.63160556773219	-33.6491722340955	-95.0087613118477	-7.61020831880845	-72.4487305953623	
3522450000	-5.57697315050399	-142.409758272789	8.35850132548898	-5.75477741161082	-37.319432295653	-96.2735401820907	-7.01345003086806	141.555168246866	
3552300000	-4.28252598732378	81.7001720457867	7.99669577348219	-3.06192361789094	-39.840330790476	-66.9672117692743	-6.43339196756483	18.063556320069	
3582150000	-5.37025061092116	-49.301062152083	8.69549894949065	-16.0334453706188	-37.4623419317118	-9.1752498220413	-7.57451013797055	-125.337471345902	
3612000000	-4.89726632704207	164.537233435787	7.43194809615262	-23.8239344505662	-31.9430801059481	-36.6704359294372	-6.57673501818388	94.3613862244402	
3641850000	-4.73761364525498	30.391362896958	8.14786773028079	-30.4429728896098	-50.5038069758715	-46.707339781844	-6.54104400414163	-34.1517009103213	
3671700000	-5.94726968464932	-107.167352652846	6.97317915715938	-44.2339554793685	-36.1979390581679	160.61335251479	-6.85072034353052	-172.77223457334	
3701550000	-7.24136713864249	115.557234150159	5.57283138628247	-47.8648180490565	-32.0768324327161	162.196298251642	-5.61823434966468	53.1048876099036	
3731400000	-6.68601901773948	2.40724142926657	4.37077403424229	-49.305612416131	-32.0539617435553	-174.548019049597	-5.47973638267999	-82.824856799426	
3761250000	-5.68646328559575	-132.71166429064	4.72077013289201	-42.5957536550279	-32.8998729626414	-141.160202900433	-5.45142725692914	131.183681908729	
3791100000	-4.79410997373264	85.1945254211437	5.91737650396222	-54.236246586462	-32.2227047629956	-101.820974416098	-5.08527282676952	-2.6675577133225	
