!Keysight Technologies N9916A: A.08.01
!Date: Thursday, 22 June 2023 13:14:39
!Timezone: (GMT+01:00) Amsterdam, Berlin, Bern, Rome, Stockholm, Vienna
!Model: N9916A
!Serial: MY53104702
!GPS Latitude: 
!GPS Longitude: 
!GPS TimeStamp: 0001-01-01 00:00:00Z
!GPS Seconds Since Last Read: 0
!CHECKSUM:0705596768
!Correction: S11(Rdy)S21(ON U)S12(OFF)S22(Rdy)
!S2P File: Measurements:S11,S21,S12,S22:
# Hz S DB R 50
30000000	-0.396821576324616	171.518112958491	14.8986765422817	118.580989243226	-53.8347673573915	-73.1025760242825	-1.68351029012174	127.385338902251	
59850000	-0.524735806264079	-4.33378644386281	8.32417583177182	47.5729453099437	-49.2150876572915	30.1652255074802	-0.823716385816046	-53.5314979081905	
89700000	-0.302440349382962	-167.001936362452	-1.03729083602363	41.1094410354204	-51.2108803094273	-46.4131624269675	-0.580565223734936	145.721164105848	
119550000	-0.511213657206624	36.6505936424061	-12.9917485750095	-4.34598620811059	-61.2096254234504	11.4161756734154	-0.474522718100763	-5.66333090211178	
149400000	-0.278609111798525	-113.911070413632	-44.8410319646817	-67.6139734805755	-56.0469341197573	76.8943019048511	-0.422779212675792	-154.232489985103	
179250000	-0.675470694241975	98.4175630555991	-18.797538271467	-58.0692592166483	-52.2499759161431	49.4666449809965	-0.651648597845619	58.7936387794491	
209100000	-0.454232746161131	-48.216300842044	-10.3745459655787	-57.9195325707779	-46.4752697773504	89.3605443599939	-0.446685614926599	-86.1009908936309	
238950000	-0.799825342070727	166.048100442926	-0.031679108768954	-71.3337764973011	-41.456083825592	116.353938437824	-0.74266458746172	127.973427565087	
268800000	-0.627637784229762	22.5819714173973	0.878973038080441	-89.7639908586909	-39.0188176197401	145.359122702004	-0.447050283878605	-15.1934169380585	
298650000	-0.828593887245065	-121.683773414942	7.1816433517566	-89.1904934710408	-34.9934308825345	165.177128042142	-0.832855229856831	-159.294117404878	
328500000	-0.939627215678252	94.817544368118	7.58756661645924	-122.565583391246	-32.7214394676457	-173.871620038859	-0.620732444194137	57.0323224253118	
358350000	-0.804726047592483	-47.1671362327612	10.8161871654727	-112.572414082726	-30.9225890101639	-154.355253035238	-0.703365642791142	-84.8381565597899	
388200000	-1.2142360268389	167.108891608999	13.2718364987793	-150.607415646478	-29.4791479893693	-134.322469539338	-0.860534367032625	129.137319776798	
418050000	-0.998606694723548	25.7982636205445	13.4763812674455	-143.018094318203	-28.8729465032038	-110.582070178553	-0.626174923786505	-11.4384503507445	
447900000	-1.59544885535344	-119.658940682569	18.1291012972946	-171.073443248726	-28.5984994904492	-86.5245522088386	-0.903171533687864	-158.929900335042	
477750000	-1.217137318047	96.7234966241667	15.9251758741996	-177.64585645141	-29.0031134151646	-56.1607415493921	-0.706091192066363	60.5088542465387	
507600000	-2.06548988810442	-48.3690457607077	20.8742035950481	173.882488789628	-29.0148350439049	-28.1547120185152	-0.890538519718309	-86.1417426529329	
537450000	-1.94987242758213	167.068800871201	18.6755709841459	147.343244879577	-29.7774067806409	5.20352212645986	-1.01250894350768	130.875810570238	
567300000	-1.76105111694026	19.3609045714115	21.8741959947915	153.014280783098	-29.9300892457141	36.5128903004037	-0.83033343411807	-14.1302240904792	
597150000	-2.97959137763127	-123.791856755324	21.4723773021552	113.281300417654	-31.599262287055	66.3428316362408	-1.91963592099093	-161.453262949701	
627000000	-2.00560543079987	88.4067042892946	22.1261131103521	121.470021545175	-31.9498453260789	111.495777317789	-1.04548984420564	55.9224814587768	
656850000	-4.45553169030932	-59.9431212034958	24.1530580366808	84.229342702731	-31.6528882428805	148.078535075828	-2.74361157819715	-97.2059888023237	
686700000	-2.98958772276488	155.660160032723	22.5202411103658	85.1870940299053	-32.7534605736967	-175.752565647445	-1.95706603482971	125.593942235775	
716550000	-5.37872356396149	-0.846415050037331	25.4424775295833	60.864220492251	-26.5209092028618	-110.737926015374	-2.81293491709316	-34.4094919789304	
746400000	-4.43834823194019	-133.47970134529	22.6446348135708	49.9414461725064	-28.9792963483964	-103.476804783373	-3.50177514363245	-165.506285032707	
776250000	-4.77864278317327	60.3204983625422	25.4701807609039	40.4303503902439	-29.0490576513854	-67.839453766879	-2.90234100420561	34.6751335701742	
806100000	-6.2229193302094	-67.1666073843816	23.1004027583004	18.1979183661833	-28.7369850810179	-36.8220632287717	-5.63794019760781	-96.2287737405679	
835950000	-4.80543593316371	130.902735351966	24.3520824214268	18.6385270434503	-28.7834500400867	-3.34658277007768	-3.70289536988592	111.032539608819	
865800000	-8.69074658660129	-5.56101964766948	23.3782384089162	-9.10245946109901	-28.265328468243	33.6673165028116	-7.23870878684345	-35.8420050503598	
895650000	-5.59365895340473	-146.046052748784	23.2152284755992	-6.30238710292554	-27.5691894343438	65.7703314493262	-4.75701688058316	-169.488922163794	
925500000	-9.70970540833337	52.0820630058696	23.8659375666248	-30.894487783929	-27.0694557030013	97.6468410883771	-6.52082922124677	24.7877945447265	
955350000	-6.53986475022209	-66.4591305523752	22.1617904161567	-31.9219378422083	-26.675762546473	131.86589654447	-5.71874439578998	-91.9022596788038	
985200000	-8.52142974582238	122.887397648042	23.8464320763225	-47.3814731581623	-26.1288560019318	164.16875344869	-5.33066923576787	101.226381761257	
1015050000	-8.04905171588009	9.67627490922441	21.4954489846501	-57.7459131900086	-25.8465538958883	-161.617031388056	-6.66095840636037	-20.2416484915187	
1044900000	-6.90307270636865	-149.990758149144	23.1944374577171	-61.6885986060258	-25.5728390188127	-128.696050598754	-4.89386962483817	-173.006551836909	
1074750000	-9.96429343915677	81.0527345918091	21.3504368041017	-81.9450917327159	-25.1919594126451	-96.3647303359733	-7.32974884317507	42.142700544732	
1104600000	-6.51979711001228	-54.2909591860165	21.6510192252121	-78.4013531064383	-25.0483883353884	-69.473665899753	-5.15330693937842	-86.9615669450433	
1134450000	-10.7930913903906	153.21093923771	21.7123690751725	-102.426692748792	-25.5682276476355	-48.5083648398324	-6.67305035547745	110.277622683679	
1164300000	-7.31139229794285	32.4531295319697	20.2588156713356	-99.3803377309325	-43.7594141158696	-27.2251659134825	-5.50621358725393	-8.81987528867793	
1194150000	-9.24469966025698	-122.344268621349	22.104896591061	-115.201611022693	-24.7325606649264	71.6232653908412	-5.10079358659847	-164.510383921741	
1224000000	-8.43200977201921	115.254034786224	19.5524823954913	-122.141416401997	-23.993665388712	90.0368799910227	-6.14283119295401	62.5933594053008	
1253850000	-8.17853433736785	-34.9606815215854	21.2493384395551	-125.368865030777	-24.1918044165017	119.269249970366	-4.82171603318535	-78.1908068453288	
1283700000	-9.93632725274443	-152.31137688809	19.5694331540253	-141.848392706616	-24.5348496334993	150.699066933602	-6.65788291456886	143.067618136662	
1313550000	-6.86035153065261	65.1339154427283	20.2321874903167	-136.708142371139	-24.8271701639898	-176.987989928471	-4.38592718136769	7.49716248953539	
1343400000	-7.79637595913592	-72.0588341016255	20.4705936454415	-161.606478321836	-25.1868236184505	-142.969042987566	-4.26207206446836	-139.584849456199	
1373250000	-6.36758002217824	152.837417469127	19.1819198126843	-157.306843482993	-25.5977616387088	-110.483293654502	-4.14617738007571	83.6603340329841	
1403100000	-6.64584265388192	6.82470881085586	21.335281386261	-177.653400888704	-26.0028022538822	-75.6471525422895	-3.1446138606923	-64.1266920103485	
1432950000	-5.89291658521527	-122.709852559257	18.4159984543724	176.446592818666	-26.5404969236973	-41.0210155753705	-3.9264473912956	149.380201662614	
1462800000	-3.80293608320839	92.0078968608924	20.3339362142334	164.224121582462	-27.1356395277946	-6.47455498936846	-4.49275387402108	1.54841469557416	
1492650000	-5.75117677807699	-59.5597831159794	16.3849218366222	155.025123275414	-27.5316540437517	30.2399638490084	-8.59003444033451	-155.859633167409	
1522500000	-5.06328825249228	166.149238436365	16.9065623375615	161.994473728347	-28.2103506153379	65.592661298361	-10.3989264047658	117.705439900416	
1552350000	-8.56849123889891	13.424268475101	17.5426623348634	149.26207219632	-29.3147420938361	102.229892571249	-8.00171001808577	-42.2407446783495	
1582200000	-6.61024790302746	-103.37471806602	16.4099940398549	151.145961271818	-31.1251724326786	130.09266347855	-8.58821085230695	-146.856575323133	
1612050000	-8.48174358389483	96.8399165735105	18.0752563726389	146.207552553568	-39.3824143771661	-141.180314481352	-7.08219356587131	63.0367933776476	
1641900000	-9.67979161150705	-9.92407250888195	17.3109046020221	133.328097960164	-30.2861481934512	-115.202668388728	-5.39144589797424	-61.0203014135735	
1671750000	-7.93881349534008	-153.148941268497	18.879788225583	133.895247969786	-29.8280944979479	-87.8595184019769	-3.71218864285835	147.251657254514	
1701600000	-10.3672453514429	75.4291781008398	17.828800904742	108.341308511471	-30.0265630390628	-51.5361875250335	-5.30940799318598	-5.1032039898981	
1731450000	-6.92310072712642	-64.2441250300942	17.3267492709763	115.55623046449	-30.3943594017695	-9.95540689255234	-4.24073416972489	-130.347675161023	
1761300000	-10.8090742591465	159.590713701984	18.821377798204	95.716997350671	-27.3475309458163	29.6607278801817	-4.89488291801042	73.9915348592331	
1791150000	-7.91969067059432	24.61601556357	16.6474551043355	94.6199772654304	-28.110356571743	54.4734670286728	-5.08152686165068	-53.8263350040189	
1821000000	-9.33746768204456	-123.088569979132	18.6939669179194	88.1153256174491	-28.242483733738	89.9909941523895	-4.4842667167195	163.112056373722	
1850850000	-9.63679924695963	114.163764190943	16.7932624853647	73.8229470562164	-28.0140618401747	121.76952074951	-5.93966050732605	20.8563832982921	
1880700000	-8.71149271988165	-36.2385919152788	17.7808695142504	76.1530682163391	-27.2210837243655	155.217598057126	-4.50806551513495	-112.501290120807	
1910550000	-11.1077612397848	-161.109283189792	17.4989695986022	56.6923541892469	-26.5415695164596	-166.632921651436	-5.71234821531651	98.5243263132092	
1940400000	-8.9369565256093	54.3938923054544	16.9026700793011	60.6015994840434	-25.6486503323184	-133.781155948933	-5.13020617116793	-32.19062379473	
1970250000	-12.3322398123315	-86.3508001379933	18.0378499497635	44.7685522283835	-25.7664386424484	-100.458178658553	-5.0339750967756	-179.440634818269	
2000100000	-9.91749471273449	143.197002397427	16.5514402673687	40.5884604428692	-27.4412728150077	-46.0253363682957	-6.34773739833143	49.2576603152415	
2029950000	-11.8693737414711	-9.11740137764999	17.9797663569333	33.7684608290562	-21.0063317309811	-8.20963662766785	-5.08594905999985	-97.3125390303895	
2059800000	-11.52115511515	-130.03383611265	16.5480682282189	21.1459474401818	-19.1874353140777	10.3215964220214	-6.62176006286368	127.133104478367	
2089650000	-11.1838751592566	77.7394066685323	17.5298830369983	22.157717503316	-18.1766792026399	31.115178390688	-5.87685851663912	-12.5512029592137	
2119500000	-14.839813471563	-46.585966319129	17.1146556046246	3.76541426600474	-17.6277117227795	48.6271620868403	-6.33722127671439	-161.090910778225	
2149350000	-11.0009698384518	165.342785282938	16.7829669681753	5.01892795283	-18.399103786751	68.0405929210034	-6.9135611536615	75.1586504141993	
2179200000	-18.3026550751439	20.957959923793	17.6877155409936	-10.6103520423612	-19.570105134183	90.2411326053607	-6.16099945102864	-85.4323478515298	
2209050000	-12.9380545740797	-109.934249033061	16.2708401013619	-14.3168391172297	-21.174770736641	116.075005091762	-7.67120798682365	149.647224297825	
2238900000	-16.3431871160054	90.3454914565098	17.5644216455359	-21.9651233767182	-22.8159346248208	142.614617307848	-6.73012163615625	0.868993020497842	
2268750000	-17.5966584493738	-22.7198310079596	16.3542254258427	-34.0975597873281	-24.8265717951607	172.495226353039	-8.072076063142	-143.586789354592	
2298600000	-13.8767599549621	174.977741574981	16.9174646713154	-36.1511849743491	-27.8778204260474	-154.450597277896	-7.65502402845812	89.3843095032664	
2328450000	-25.2463368075283	54.8019023445904	16.6975968259869	-50.8064670899107	-29.738520604749	-109.654185634949	-8.35369387887759	-73.0256428479006	
2358300000	-15.6296990482443	-107.983773286145	16.3754049651445	-52.2105498672544	-30.6760492543466	-67.9268858233401	-9.26727032186226	167.16751228211	
2388150000	-22.0142674259902	74.7052554532919	16.7981465887068	-65.1508685670524	-31.0586875638242	-29.1349535971263	-8.94496208435571	9.55914032781335	
2418000000	-20.5149081278291	-36.3171044894402	16.1252010751269	-70.8847381292529	-31.1092461793036	5.80429389910203	-11.0855117832316	-127.795886400624	
2447850000	-16.4384016135218	145.652875557924	16.8287708178117	-77.577019434193	-31.2734768430424	36.8352034603069	-9.50978167951178	98.4459123206727	
2477700000	-23.3023901143262	-0.659880594129568	16.2748687434198	-87.5342579744276	-32.4482606854552	63.4352257447111	-11.7074095253081	-60.3049797492995	
2507550000	-15.9590141545888	-150.178280552357	16.8014792694913	-94.7518516202717	-34.1812592632343	95.9566625010798	-10.7954466267357	177.214038858702	
2537400000	-17.3649908443349	40.4381034744054	16.5437218116024	-106.554845297691	-35.5660395143913	130.023804793489	-11.592572647258	16.0920926072408	
2567250000	-17.6473551894617	-90.8415462007004	16.6835341870457	-114.337925160291	-40.4347537546808	167.382987303358	-12.9710557957652	-117.597086622063	
2597100000	-13.3095276800029	99.200483562253	16.4949154460803	-128.201980664798	-44.1365964054337	-139.121179590718	-11.9078735131785	84.8059408735901	
2626950000	-15.7033531440263	-52.6549709383145	16.0015795344708	-139.937329124251	-45.0603930764499	-89.9881970740759	-17.1976152569417	-77.3682506463526	
2656800000	-15.2164035228728	131.995317400097	14.5496609750732	-152.847293520051	-43.1381358046546	-19.3154575217813	-17.0860521896626	148.743102207024	
2686650000	-20.5356223124674	-31.5869791563338	13.2169901482154	-160.422019153854	-44.4617711680794	18.2310771571514	-26.2911133867956	-55.8958009780258	
2716500000	-18.0311969954362	79.3690444778693	10.7423806122446	-152.527663007447	-43.964377153196	70.6066575489614	-16.5667232179079	37.2626356819981	
2746350000	-19.5146036077828	-146.682938360872	12.686714823675	-150.176092808914	-44.894976700024	128.350320745345	-12.7401546183362	-177.117921954848	
2776200000	-13.1428519208902	86.2510849385663	13.4540548768474	-155.52315289568	-42.038098215493	-175.165943274603	-12.6180632450291	51.0085255682533	
2806050000	-14.574291571017	-91.8787049291163	14.3113646502969	-168.23850682241	-39.939861275653	-138.726567706772	-11.4534134700141	-124.745451145428	
2835900000	-13.0511572014791	139.840327166092	13.812451092147	-174.728957168295	-37.6677512777163	-100.420921276643	-12.3847456403833	103.39211215131	
2865750000	-11.6163956819577	-2.78052956869502	14.5185706356114	175.306238737481	-37.0174806311438	-59.5058054501432	-12.0352757191222	-39.7766177564205	
2895600000	-13.6689993663808	-154.433154292919	13.680844058359	165.250706614791	-29.7183832308536	-40.8164459612787	-11.86584900356	161.858449927482	
2925450000	-10.0216759059942	83.1863022202582	14.0917764988636	159.145120759755	-34.6577677711253	-40.6109373712465	-11.5070305419081	47.5966337345845	
2955300000	-12.6063578505937	-67.7118082435674	13.7054202466772	148.361535553704	-38.0842507769649	-4.8945927071062	-11.6741648776584	-118.863690888519	
2985150000	-10.0682120146213	160.654858871281	13.5673670332954	143.593356592478	-41.3795098269189	44.1834713864463	-11.5819631692133	117.852912215438	
3015000000	-10.0699358957137	21.4435259923352	13.7870940588103	131.460064326994	-44.2602118688383	91.0048377934426	-11.0721839430929	-25.5839937180831	
3044850000	-10.8491493989969	-113.741850887463	13.0516323766605	125.183275300778	-44.5738830820993	124.9540349111	-11.9422414397121	-168.799980747282	
3074700000	-8.80161259802308	105.436044688566	13.3134433387355	117.232602992844	-44.8938063924458	-160.053375404764	-10.0996552059399	62.1995615154954	
3104550000	-10.4142864868507	-25.533027184821	12.6791073378891	106.970754037176	-44.6294150203366	-121.840786044895	-11.8870793041151	-85.9056468036858	
3134400000	-8.4765210767078	-168.212429408852	12.8963366972955	101.79223398859	-44.2398353230851	-63.0026250189933	-10.3546348785925	142.845429558235	
3164250000	-8.51216467515526	57.2823170823273	12.3425052971243	90.3445542139814	-47.6735442008578	-23.7966238340842	-10.3483987407593	3.95241971348636	
3194100000	-8.22506368626609	-72.6923746853613	12.0074032915764	87.0697333175207	-49.7261590176368	66.6614293663814	-10.7344656427196	-129.570373185571	
3223950000	-8.12560476708758	138.255488431786	12.2328315294467	74.6319683577065	-42.4446570455066	112.483874997537	-9.20296558650374	87.2599760240953	
3253800000	-7.33178130731958	13.5219788888615	11.169344441075	68.950976759325	-41.0779177457898	163.083916296217	-10.3817221210505	-38.9680528722663	
3283650000	-7.52852775579472	-129.224236447215	11.8612088754724	62.8967773867872	-36.9197870207559	-147.378722993137	-9.04081304093247	175.949705111737	
3313500000	-6.7510164166697	96.0685571231666	10.6837264608006	51.5612281672218	-29.3620529944413	-150.41648924714	-8.64057216913029	42.8114665201307	
3343350000	-6.21460645460912	-35.3473062261611	10.8309170851756	51.4439126265948	-37.1459867147317	-158.447742063639	-8.58086487130246	-89.826646643016	
3373200000	-6.88883720679935	178.681112416526	10.8341371141929	35.3226978205798	-39.7942175213753	-110.932365383301	-8.17249937258195	123.076235918752	
3403050000	-5.35489292428676	49.0983007731506	9.68805461357444	33.8285349070865	-39.1721732783338	-67.552180613335	-7.74552462125864	-1.44237605143111	
3432900000	-6.27243335437815	-87.2913263560236	10.780424971189	25.2128414681743	-35.9920726027216	-42.8777041633453	-7.5674090062047	-147.550930852307	
3462750000	-5.74226311876693	131.345717786479	9.18309917227123	14.7975123318347	-31.1122693716556	-60.60097766339	-7.19367579156645	79.2831954833025	
3492600000	-4.83255433482615	-0.929569105937755	9.70406717528552	14.8403803055487	-33.6491722340955	-95.0087613118477	-7.15590179994768	-54.0304438953233	
3522450000	-5.63656591132461	-139.336815217553	9.08891445501818	-2.36195878941085	-37.319432295653	-96.2735401820907	-7.07038402241079	157.958104722167	
3552300000	-4.43300625066998	84.582588143776	8.26299895739523	0.714831096603863	-39.840330790476	-66.9672117692743	-5.87228900180619	32.8339636553782	
3582150000	-5.20544978801084	-45.6886041286319	9.279569307221	-9.92976959286155	-37.4623419317118	-9.1752498220413	-6.9314550093254	-106.966657277756	
3612000000	-4.82092326873449	169.356682527499	7.87647956636203	-19.0663334090817	-31.9430801059481	-36.6704359294372	-6.07670868583123	109.580793301254	
3641850000	-4.28981494185278	35.9055231046209	8.54443768573642	-21.468059653861	-50.5038069758715	-46.707339781844	-5.76897371549268	-19.8278237233988	
3671700000	-4.93075987454342	-97.9191166965277	7.75750904936374	-33.7394725607618	-36.1979390581679	160.61335251479	-6.27175241837683	-161.246206788307	
3701550000	-4.43536207220937	116.807760240218	7.5186563257384	-36.3047407838955	-32.0768324327161	162.196298251642	-5.12905888816917	62.424358589717	
3731400000	-4.71902847169128	-14.5208768594548	7.35931260595674	-49.4975574837547	-32.0539617435553	-174.548019049597	-5.31653647210539	-71.212888281097	
3761250000	-6.35630066178162	-156.104254013132	5.77280466711357	-51.6483874926675	-32.8998729626414	-141.160202900433	-4.98658811575188	142.949780294944	
3791100000	-6.68321567481141	74.0464433860054	5.88555583924811	-56.5644469624241	-32.2227047629956	-101.820974416098	-4.56488410671563	7.08703071081807	
