!Keysight Technologies N9916A: A.08.01
!Date: Wednesday, 21 June 2023 18:51:39
!Timezone: (GMT+01:00) Amsterdam, Berlin, Bern, Rome, Stockholm, Vienna
!Model: N9916A
!Serial: MY53104702
!GPS Latitude: 
!GPS Longitude: 
!GPS TimeStamp: 0001-01-01 00:00:00Z
!GPS Seconds Since Last Read: 0
!CHECKSUM:2033207291
!Correction: S11(Rdy)S21(Rdy)S12(OFF)S22(Rdy)
!S2P File: Measurements:S11,S21,S12,S22:
# Hz S DB R 50
30000000	-0.42812648405361	171.474955738668	9.84610550130657	1.00050939454098	-59.3473749628265	49.2839259635515	-0.299226112246764	166.110020762221	
59850000	-0.521565498047766	-4.01270662640829	7.62299941916734	165.816269313601	-51.894119420826	-2.68544398206692	-0.79106098717748	-8.01524513408209	
89700000	-0.375408628457933	-166.923729138041	-4.24980310853787	7.86943509288948	-60.4078992614242	13.3106607728911	-0.594325384437937	-176.03376119187	
119550000	-0.5229518286185	37.0428443178643	-13.9164052406753	-163.964281087718	-58.8314662766187	15.8150929460819	-0.624408455434457	23.996172160533	
149400000	-0.352110013839816	-114.120917792394	-52.9259384658234	3.39976802447653	-57.4701525407759	38.2559432897659	-0.510724665740455	-130.849870721459	
179250000	-0.66261848100316	98.2632866743437	-20.3787674452514	-123.56873945722	-54.1479676564675	52.5227345705926	-0.737789546709666	77.5575380670354	
209100000	-0.466248419268593	-47.745945089518	-11.7446386819755	97.057361343131	-45.1497461077987	87.8061620054063	-0.534825094658288	-71.6770072068509	
238950000	-0.794462301511391	166.080822127868	-0.85961174696272	-42.9880181423184	-42.051514434985	112.674479670879	-0.821188683129113	139.956124670537	
268800000	-0.665210364210896	22.9870817502529	-0.264409953197151	161.947138173249	-38.9525639249838	140.667384258129	-0.617029966292723	-5.59457675536821	
298650000	-0.856913959913695	-121.384487027129	6.08281162547564	34.6260723871189	-35.354498254256	169.643642233395	-0.846774157005407	-151.954288535207	
328500000	-0.930750319546001	94.89999892097	6.54971318600802	-133.457696282445	-32.4152844787242	-173.512457807109	-0.760166271884907	63.3008035577676	
358350000	-0.88690542809822	-46.9901536334004	9.39500396724	106.540095726212	-30.9588571892331	-150.867041103597	-0.823726434801967	-80.7228155557045	
388200000	-1.17474908871424	167.758325755376	10.8607566449273	-67.6676409034006	-29.4091612041731	-130.264798686079	-0.895033464706849	133.311849090544	
418050000	-1.00276154461337	26.4367232087503	11.7563715662099	169.517759333181	-28.7208219043395	-107.600659020006	-0.783743589640938	-8.23137744854852	
447900000	-1.40802642822044	-118.429804559582	14.7752569653582	10.3412604927267	-28.3436471889729	-84.5468276176766	-1.00318205502191	-155.78338915693	
477750000	-1.17447530919649	97.3954891814152	13.6850105474639	-127.08852576109	-28.7705367125632	-57.3429488077107	-0.819643675070292	62.7233015194621	
507600000	-1.4076863910327	-48.9325341005817	17.3127060491128	95.5246191633968	-29.0499685076793	-25.3787104809943	-1.0052145701394	-83.6976070215192	
537450000	-1.97745824349457	169.600275065391	15.0537344976776	-62.0766619327063	-30.6079444135981	6.16113297257616	-1.08257222580621	133.20077557446	
567300000	-1.57664005253255	24.5724921885545	17.6941946224148	173.989820936349	-32.1864243320062	69.8344011309618	-0.876358340555096	-11.1074578815649	
597150000	-2.20533402050317	-118.691226639079	16.5615050220393	2.30705948138528	-27.8112581557435	75.1895803212344	-1.65012775788051	-158.548070067265	
627000000	-1.78559450627481	93.9400771764169	18.2334133089986	-121.82666454281	-29.397829551505	109.956135579274	-1.03082004342689	59.4037102906092	
656850000	-2.73116410628204	-50.5002756029226	18.7962915047171	76.4167360003758	-29.8856190258026	145.090443737167	-2.18631981416243	-92.5858163080592	
686700000	-2.24375405973123	162.674182109052	18.8598311718743	-57.5444638682101	-30.7307941795665	-179.609426267858	-1.69635453093451	128.463275142854	
716550000	-2.92794954019628	13.2773925529829	20.3838785729491	153.990134529139	-26.5911631120267	-114.806948176239	-2.10373009851795	-29.448441597951	
746400000	-2.99112019362042	-127.117065983635	18.8975832476943	5.92292363929922	-28.0455040534642	-104.819921497172	-2.94472951963393	-163.012310503858	
776250000	-2.8166895485488	78.7270270224818	20.671450305839	-132.309036942658	-28.1896775101688	-68.7040920352663	-2.22049020252115	39.6868911701155	
806100000	-4.03240515748897	-57.1344008268756	18.9089553698279	67.8135729321065	-27.7946746176349	-35.3462056870146	-4.70064755161929	-96.1285516413832	
835950000	-3.15426709842277	147.236558138346	20.469526349993	-62.3723631438424	-27.7461212951415	-1.79716990918196	-3.0488521231922	113.498286079763	
865800000	-5.42887832608971	7.55192726758418	19.5928440153489	136.271019331795	-27.3846057332921	32.9588759153137	-6.05661547806587	-36.5403044316046	
895650000	-3.75851837205982	-136.461495028821	19.9139784224439	8.59356798707827	-26.9807831303767	64.7819871440179	-4.27030458576614	-170.413024171139	
925500000	-6.32487194523545	70.1393161925773	20.2211872247084	-149.100585528592	-26.5120130381849	98.5825976933657	-5.67444288691603	24.9537147929666	
955350000	-4.64713735675798	-60.1384593550426	18.9559675680221	78.6760391177045	-26.0452649624802	132.346825475462	-5.47293663797734	-93.9927004263896	
985200000	-5.93162125297943	140.366318904455	20.4522639010767	-69.9270371075302	-25.9046976853442	165.542163948889	-4.84018305415024	100.210972184899	
1015050000	-5.90695030648698	15.5649500233885	18.3103683956056	147.56628943901	-25.62529226736	-159.370183590951	-6.42062905248039	-23.7400298567886	
1044900000	-5.19420920158312	-138.641786759978	20.101635803734	12.5730725976508	-25.2794918922224	-127.112272335223	-4.6211520555443	-173.924241922705	
1074750000	-7.21495405968075	88.2344157590607	18.2406664386787	-140.823834722172	-25.2442722258536	-94.9029741761375	-6.87949028844506	40.6487980222053	
1104600000	-4.95723251884129	-51.6567092600384	19.0410739626684	93.0970408349141	-24.8041817570219	-63.8767715014182	-4.89400771345194	-89.846321180724	
1134450000	-8.11743356747172	161.973589862269	18.6818756737632	-64.4469339047141	-25.3174229251186	-42.5652064249842	-6.21469723650126	108.712333278408	
1164300000	-5.6670213630764	32.7493376402643	17.5505428756559	168.379064772507	-37.9828850405861	-40.2912166559716	-5.29033524765116	-11.7709624399792	
1194150000	-7.35395133913957	-117.467888636612	19.2849376658987	19.94757636705	-24.6405823952891	74.5070067275239	-4.96287950268988	-166.349972994509	
1224000000	-6.75733052818145	116.441200759584	16.6622500262013	-118.67661349503	-23.9852440777297	94.2991561206171	-5.93402205964681	62.553507801004	
1253850000	-6.39119293437148	-32.2938885340133	19.0933072790771	106.656400052439	-24.134007401297	123.134050205847	-4.31906197845106	-78.6182619075694	
1283700000	-8.13429702350614	-160.492408598165	16.8428760187693	-44.0470696595879	-24.5311576356601	156.042857287277	-6.33147524085692	137.073473037306	
1313550000	-6.45792249903839	58.6827134676235	17.7857861089337	-169.880236363651	-24.977975939672	-168.29226834465	-4.52625364418515	3.96254347651639	
1343400000	-7.29450820612863	-74.9852228765246	17.4866034207406	37.6307100253446	-24.5137097781895	-132.349945411158	-4.80627380261445	-141.171007824632	
1373250000	-6.05853522763249	149.159558944905	16.6265834212413	-90.8810340165594	-25.3697619286699	-106.868583154645	-4.59207591342682	87.3917005976449	
1403100000	-6.62653139564552	0.532127314145782	18.5716650743792	122.028745841474	-26.447813550005	-71.2113889423904	-3.70868705442297	-59.7420157299494	
1432950000	-6.32418538147123	-126.269074603804	15.7797935712556	-16.4778027818389	-27.3621760527454	-30.3364716427174	-4.75732662104475	166.303694016977	
1462800000	-6.32924763485514	87.3122765157854	18.2776604376092	-150.937019565135	-27.8148502200099	20.8123555658535	-3.64836393845414	22.8082220076569	
1492650000	-6.58274538658144	-42.900171545396	15.8089881596881	59.0473285919562	-23.4745308360499	66.3991666001228	-4.26414645491997	-117.206564229141	
1522500000	-6.00647722122165	-179.677309205599	16.967315853242	-67.4748434460651	-24.5628649156247	66.6151264691346	-3.72365891002805	107.446769715783	
1552350000	-7.01228954220573	39.7432943241719	16.9538851064663	135.796424149989	-27.2919221957027	96.6149740765169	-3.20575636936096	-42.0811987258307	
1582200000	-5.30126103348723	-90.5549394462624	15.4837791536465	7.26413823787127	-33.5880516432056	122.633706246351	-3.05016457779853	-179.269424822051	
1612050000	-5.93408021384296	107.680375527722	15.548352770805	-138.536157019644	-30.5764912032803	-109.11549088291	-6.46912353268485	30.0649836664882	
1641900000	-7.23993481735058	-14.3869558105842	14.504665529396	88.2842328159899	-26.3062987850705	-121.421780947798	-6.58355388901365	-87.9664703103482	
1671750000	-6.63351800097022	-154.550863847743	16.3994401973511	-42.83812858705	-27.6012987728026	-91.6181106319878	-4.86745561866747	137.510761599677	
1701600000	-8.46285954217823	71.6310810893138	15.2767461560264	164.92365816543	-28.4656859067749	-54.3645594315751	-5.39515011878447	-11.6776763986529	
1731450000	-6.3258957019218	-64.4023363792609	15.1565363820014	38.2555829496504	-29.2095458425966	-13.3566704785256	-4.64860501649505	-136.226006868218	
1761300000	-9.27428692960252	157.604347670254	16.4833267911715	-113.087216073041	-26.5322650641815	29.8948686890808	-4.62096936225836	71.7710448196551	
1791150000	-7.33123096677531	24.1478930783965	14.5714131247059	115.230857265091	-26.9987789808912	52.323096839574	-4.81105980416061	-59.3804028842757	
1821000000	-8.40989717147893	-121.950047240659	16.74128371944	-24.5447642911834	-26.9832687888685	85.5579039203084	-4.08750544501737	159.690979167572	
1850850000	-8.32792206969911	109.982140718196	14.5142642318175	-167.337397375767	-26.7229280131241	121.325242321786	-5.36577534400788	17.3463322189562	
1880700000	-7.86614913504721	-35.6084190130293	15.9811758284763	61.097146483247	-26.469600787219	156.825423881735	-4.25739700422287	-116.582515545182	
1910550000	-9.64856044291027	-165.740856007656	15.2353458214392	-88.2618497733472	-25.62605382843	-168.171855457654	-5.25250643438273	97.0963186457959	
1940400000	-8.10537032856526	53.705102198604	15.038758367186	142.159542720096	-24.919715400033	-134.082620280574	-4.92086657978126	-34.5545102045128	
1970250000	-10.7444263305032	-88.6017614112589	16.1533624676866	-5.45092185106298	-25.1617063667417	-96.9384150639585	-4.67365679136421	-179.727799401387	
2000100000	-8.96637572803794	140.588011177093	14.5880608465078	-139.830626511322	-25.8585917432063	-47.0801268143151	-5.93590826377791	46.6457481670362	
2029950000	-10.5505565758268	-11.3557482566252	16.2112526064296	80.4976253227451	-19.8677170033768	-11.4268654100902	-4.6551202202294	-97.6528264451757	
2059800000	-10.2965505982496	-136.295397700089	14.651168111536	-62.6045312698104	-18.535242361344	6.25396417252729	-6.33321606249266	125.754958673396	
2089650000	-9.97015031031551	75.4592795462021	15.5943735260916	165.386766291996	-17.6655072537436	28.6718972150825	-5.54023448035517	-13.9257037571104	
2119500000	-13.2596587730685	-55.971892709762	15.205725338874	15.5806750301065	-16.9435591249283	45.0599437630553	-5.99487495482669	-161.031705459261	
2149350000	-9.99468311466331	160.007587687971	14.8195752095646	-113.850674014872	-18.1159397317215	62.7498631309095	-6.61436085983188	73.0223744506287	
2179200000	-15.3082533110208	13.3782999303182	15.7026062515448	98.5679771503893	-19.6095594868224	89.0178382647862	-6.10801704358306	-84.5486393662864	
2209050000	-11.8499940502371	-118.037916093335	14.3590178550799	-36.264195004074	-21.1454284449633	114.945781145862	-7.66053122758614	149.532493115843	
2238900000	-13.6587716238852	83.7492584646183	15.645033469963	-175.923610370181	-22.823179145718	143.822232169956	-6.89097250850222	1.7303646066057	
2268750000	-15.5008103237885	-39.0620179504555	14.3529835217691	41.1855980575815	-24.888710594344	170.619323630979	-8.55106359403619	-142.606417251425	
2298600000	-12.220205292353	164.703373611878	14.9458980946516	-92.6610324861696	-27.9582047080382	-159.579835209972	-8.07807482197109	90.9484427992667	
2328450000	-19.6511125947223	31.450211499161	14.6819653727162	120.789847474595	-30.2988030280106	-115.807797702793	-9.08650302846924	-70.9012132898459	
2358300000	-13.9143044889094	-117.694903767303	14.3968467420885	-12.9648351783158	-31.9675929862179	-72.7624015771591	-9.8542015236706	170.426453739781	
2388150000	-17.2651244083918	76.4388171748803	15.0224864532755	-156.887886697779	-32.0917771520166	-31.3856562459833	-9.72487650445131	14.5519713774172	
2418000000	-17.3959572437773	-43.1295312177886	14.3418443095064	65.1713178835253	-32.0540483086135	8.48803049387191	-11.6811940624697	-122.014069465987	
2447850000	-14.1715476106269	144.286040509457	15.1127425327633	-74.5515762421112	-31.0014841178663	39.4854944993679	-9.86201920112084	102.878751231303	
2477700000	-20.1261949139645	6.85969453162167	14.5679765920356	142.691665517943	-32.1064397300449	65.266556270462	-12.4855678723099	-56.0023784940128	
2507550000	-14.0630292053856	-148.584977684416	15.0239560949936	4.23119274154888	-33.1654785429235	92.1252832721396	-10.8207876590594	177.32292365342	
2537400000	-16.0866321884767	51.4474141720851	14.7193391023088	-140.678597348678	-34.5729030675894	117.317217764151	-12.3663395245158	13.6329684338262	
2567250000	-15.5916107436645	-83.4792158439971	14.7719119410302	79.6037837833047	-33.1644830784869	119.780787397957	-13.4070035355723	-125.805963310643	
2597100000	-13.0848252375964	102.382505628799	14.4076031495067	-67.6144103481766	-35.0288548589919	91.2448053610457	-12.1252991228245	70.8587862965167	
2626950000	-16.2256389971974	-44.6321020761884	13.8908261623849	148.488054643305	-37.2821501248225	76.9050890268824	-15.4763147982737	-107.608866668283	
2656800000	-15.7856920522531	108.766222757453	11.111713619482	-1.54321212770773	-36.1192781649107	82.4860745494229	-15.2026340769703	57.5996178590994	
2686650000	-18.9547379605846	-156.474116704825	8.38487021897104	-117.500334907886	-35.3448426570603	74.7198522156073	-14.0276528830576	169.367279079185	
2716500000	-13.7526311533185	19.570149306703	10.4937054330371	117.951517080127	-38.5675720490166	93.6588710821242	-13.7619660500431	-13.9095584723747	
2746350000	-14.2530493377242	-165.167095811523	11.6265436620537	-26.3567996735965	-39.6581487121492	143.283934973713	-12.7411885075934	159.75019225248	
2776200000	-11.0973272911545	71.6137104051691	11.7424518698386	-164.269508475804	-37.138647086993	177.457142955393	-14.1048015195535	34.9235748883326	
2806050000	-12.7990106564248	-94.7610657549316	12.2057699849107	51.3494517849516	-38.0292319883719	-167.811214863359	-12.1824695418408	-141.920847631006	
2835900000	-11.2911226179905	134.073824522264	11.6528572823317	-87.2759613417514	-38.4764068181637	-152.801023666016	-13.8167939994408	88.0428806887998	
2865750000	-10.400499976478	-6.50024563511494	12.0745731232246	131.625747515123	-40.3314127287026	-174.820996729202	-12.9000196503647	-58.6656643951413	
2895600000	-12.0786253178127	-154.882543915467	11.3649832024058	-9.36162295779072	-34.7243017883472	106.049884397509	-12.3991783264322	145.175679266653	
2925450000	-8.92740922954459	78.6305272977226	11.570910639822	-146.753736841339	-30.7082561808686	43.8370963840577	-12.4676873274433	31.1123770210639	
2955300000	-11.6454546645342	-67.7665883461923	11.2608231530489	70.0061736575283	-37.0708785039455	48.3557704110106	-12.1326346635933	-137.946076286576	
2985150000	-9.33935340000437	157.995976163714	10.9937658842337	-66.4574725554495	-39.881580392515	90.7752244104468	-12.0519936342782	100.607159090491	
3015000000	-9.42497423826525	20.6082353968652	11.052418043153	151.137867075242	-41.6750172364311	136.281807406831	-11.810043233053	-43.3817856818632	
3044850000	-10.3084170386577	-115.733586861051	10.4565456973814	13.1340746888646	-39.9816666437559	176.160654062086	-12.1111412590885	171.066108541647	
3074700000	-8.22912459466077	102.960508683492	10.6424833930827	-127.644809474896	-39.3924563862544	-151.599873017274	-10.5145594987082	45.6957626126987	
3104550000	-9.70053889536655	-24.3626624236814	9.99567532948178	92.6361695356856	-40.3221570445924	-131.488725571869	-11.9693781240265	-104.141193317512	
3134400000	-8.29473105921919	-171.004464975201	10.1170645378479	-45.7840005973298	-44.1697076544753	-75.3546022094352	-10.2361013996584	125.601607734663	
3164250000	-8.14745656006427	57.9054231187745	9.49493842655434	171.985162190425	-47.5756631969226	-5.4082527631064	-10.5471354193379	-11.9733882102335	
3194100000	-8.01264711945849	-74.0023901633587	9.33783577602421	36.8411462545258	-46.8437305312461	25.6835624217488	-10.6765561725815	-149.754853744965	
3223950000	-7.77074319092268	137.710992345517	9.27238165600085	-107.377437794756	-44.7922633930678	119.57561926829	-9.11172513319731	72.6909579981123	
3253800000	-7.02375642951323	13.876809481486	8.35940140603099	117.970517532979	-38.4314036607579	159.873012558239	-10.2519154419071	-59.1304855719941	
3283650000	-7.50745495446703	-131.1352478948	8.98579034098805	-23.6549609114543	-31.5887957448202	-174.451499829272	-8.83044323485128	156.827623244848	
3313500000	-6.67647694890635	94.7787683919792	7.69263308137506	-164.380059207755	-29.3349933711182	150.262483884956	-8.87126533266482	25.5105086814647	
3343350000	-6.19963095829953	-36.1104354343258	8.07380243039546	62.6008846881615	-36.2088127229801	156.451312549983	-8.90886249029694	-109.122967699896	
3373200000	-7.05033601652869	179.119015968645	7.67194363189796	-84.8290053350953	-39.6738826290595	-176.963988273405	-8.16293682161086	105.810326070844	
3403050000	-5.27465581066778	48.7239986016762	6.690133440042	144.181421582881	-38.7936196876363	-134.146694534505	-8.08107614803389	-19.3835661425774	
3432900000	-6.32285032871007	-86.0104267926136	7.64280434686782	1.41006778334119	-40.4190995592973	-98.679761254368	-7.86309746828938	-164.698095959086	
3462750000	-5.6902034978254	131.301949068724	6.10321721664478	-137.75404426255	-34.7530679328926	-49.7246671002807	-7.59235653003879	62.6908685608832	
3492600000	-5.00800280727956	-1.39471308667796	6.82047719473531	88.0697955118954	-31.5308437660084	-74.4359052056367	-7.57503217985443	-71.5221313498107	
3522450000	-5.74449687705289	-138.424926029346	5.869287261477	-58.3231891640194	-34.709277875649	-69.2319308083106	-7.32047703886372	142.620362525772	
3552300000	-4.46849085255672	83.7333518839177	5.37499074874662	172.666333789155	-36.9371644542439	-44.172717160593	-6.49993681959542	19.0315383395999	
3582150000	-5.29693018587076	-45.5963697342153	6.29126183754604	27.5278198820393	-32.6404264193417	-12.5293693204948	-7.76096598121083	-123.053966964934	
3612000000	-5.10916410335045	167.284579140677	4.92289761026296	-110.369599775147	-26.8842446301596	-46.7451679310057	-6.70951047695863	94.8480604014485	
3641850000	-4.7325944713083	33.5280412231148	5.64279041521518	111.417299911725	-30.989938041998	-94.8876904599249	-6.46300800218898	-31.7672741553254	
3671700000	-6.21219932149131	-103.213814003662	4.39895582301546	-34.8333586256118	-30.9189046315667	-129.912282452039	-7.26725891856296	-171.882397252792	
3701550000	-7.5188009328504	115.188831277777	3.09521256701204	-169.798873142061	-30.1821647412431	-161.084180943205	-5.65609745315139	54.462276728223	
3731400000	-6.70394733858472	7.53920485121432	1.84512696740666	56.2522161238972	-33.0335594810574	-148.306623750654	-5.54293672361732	-81.5092803358985	
3761250000	-5.96299703199172	-130.124920223473	2.14268283860171	-67.904393463605	-35.2703540647391	-111.180925800922	-5.50551756179378	131.976216878074	
3791100000	-4.73738208485602	87.8666843786544	3.3890936629739	148.688489889946	-35.1642569676845	-61.1041914754991	-5.04719410677906	-0.470320596765694	
