!Keysight Technologies N9916A: A.08.01
!Date: Thursday, 22 June 2023 19:07:02
!Timezone: (GMT+01:00) Amsterdam, Berlin, Bern, Rome, Stockholm, Vienna
!Model: N9916A
!Serial: MY53104702
!GPS Latitude: 
!GPS Longitude: 
!GPS TimeStamp: 0001-01-01 00:00:00Z
!GPS Seconds Since Last Read: 0
!CHECKSUM:0050189966
!Correction: S11(Rdy)S21(ON U)S12(OFF)S22(Rdy)
!S2P File: Measurements:S11,S21,S12,S22:
# Hz S DB R 50
1000000000	-7.93204704163517	71.6744026661102	21.4703770010555	-52.7332233198598	0	0	-6.12910562631272	31.3112330994263	
1025000000	-5.25055561540388	-34.6905171187675	20.4140236228337	-48.8026993896104	0	0	-5.08530985832713	-70.0011756817116	
1050000000	-6.25482636660233	-172.379766681244	22.4774175068477	-61.7233443823013	0	0	-4.3531319521008	155.416494464106	
1075000000	-7.54141644078314	83.3675185413202	20.2583988910759	-76.4218900237658	0	0	-6.15806403180858	37.8718795190867	
1100000000	-5.04111761619668	-29.2800147982102	20.2590834162831	-70.3705655190071	0	0	-4.70081393681693	-68.8505548357383	
1125000000	-7.51842758775811	-161.997757632088	21.662910370048	-90.3836765558453	0	0	-4.54501779225433	155.679719261163	
1150000000	-7.0627421539245	95.2350159468653	19.2253413109769	-97.1913192043278	0	0	-5.64697571179988	44.624754409623	
1175000000	-5.13036461623184	-21.8722922247482	20.1981310405703	-93.1691326138071	0	0	-4.13912744461655	-67.1997967097708	
1200000000	-8.06298269914364	-145.768642179678	20.5626216461366	-116.594696048137	0	0	-4.65083334021488	160.317301989108	
1225000000	-6.57710646378184	107.822025533778	18.4212972938674	-115.868427022658	0	0	-4.98922878965385	52.904107414692	
1250000000	-5.31614312672222	-13.7010597088637	20.3056190081178	-116.240694192489	0	0	-3.83318244461191	-62.6828522390779	
1275000000	-7.90948992885214	-127.893341857797	19.4998369392138	-139.563054326128	0	0	-4.8728014676205	169.767516040077	
1300000000	-6.21956090659179	120.485677899107	18.1161407954035	-134.242862974107	0	0	-4.65683878633694	60.1327574311548	
1325000000	-5.93782089622107	-3.77066988526739	20.2030195488494	-142.027435083794	0	0	-3.54716231112861	-58.9862756785138	
1350000000	-7.42059900901653	-109.843953523376	18.2171687906561	-158.629945449194	0	0	-4.57851943923547	-178.421904467054	
1375000000	-5.86915616745506	134.546333820804	17.9100411988789	-151.342316979521	0	0	-4.09369993183324	69.9145348432249	
1400000000	-6.59248636747894	10.1666279787836	19.9534192389408	-166.968128324197	0	0	-3.31431074044841	-52.4004828688239	
1425000000	-6.79666476670838	-95.2813627695643	17.4211437441137	-176.812178559607	0	0	-4.09923921999405	-168.157458932534	
1450000000	-5.82059702633429	148.58494203426	18.229684662274	-168.890425915349	0	0	-3.50050932369691	76.7240921266167	
1475000000	-7.03419935410689	28.3372874285568	19.6825721277934	167.029025764401	0	0	-2.80174257646126	-46.8394553114242	
1500000000	-6.29820816817832	-78.4063523922724	17.2322675641308	164.362199445317	0	0	-2.89915427782918	-161.092333725218	
1525000000	-5.45904013248173	171.684606254444	19.7119578611867	164.510805949753	0	0	-2.20202043081994	75.2829812676269	
1550000000	-4.01451060246275	44.3980628156677	17.9276952498907	122.443001718885	0	0	-0.696110329555407	-61.8019111271559	
1575000000	-4.94411287798988	-79.2241799362253	13.7429083426216	143.466968633268	0	0	-11.8755852997133	161.793389914793	
1600000000	-5.32181801079011	164.24706018206	16.1931363058188	148.082787859844	0	0	-8.42189528329943	106.246378150087	
1625000000	-8.37090543409063	47.9072132500566	16.3042151549767	131.777466285566	0	0	-6.713463889019	-26.1244091848826	
1650000000	-6.40731759981918	-55.5835919163053	15.2826702625437	134.491910620839	0	0	-6.6247156900072	-125.516799270482	
1675000000	-6.42370492907004	-178.278173514881	17.3207599101068	129.530731178773	0	0	-5.35679881961421	114.098125000073	
1700000000	-8.41014920152097	69.8057297962417	16.0548040492613	112.362969258384	0	0	-5.61480856716009	-13.6098968457342	
1725000000	-6.0541093863866	-42.2479824978108	15.5285617734358	117.504482622835	0	0	-5.55607749946108	-115.898547637646	
1750000000	-6.88633995482289	-163.048570887165	17.3249731442418	107.634337220722	0	0	-5.31394778423703	121.024169094409	
1775000000	-8.68081828391892	86.3569228397335	15.5680898164779	96.0258022443079	0	0	-6.5605592389087	-3.69497403015694	
1800000000	-6.90793278375944	-29.642673631962	15.7920604429387	101.939211488553	0	0	-5.81985476659103	-101.246962498657	
1825000000	-8.74988156712736	-150.210805383888	17.4379023460808	88.8389531270495	0	0	-5.11903053070221	136.964446549774	
1850000000	-8.73576533326401	105.619389537871	15.649649363952	78.8980520809605	0	0	-6.28204119716981	18.3042515124555	
1875000000	-7.24843139153711	-15.0531174336361	16.2182699916297	83.0278478579682	0	0	-4.95776274968229	-90.8650731083666	
1900000000	-9.47834003088939	-133.570610555717	17.0778814876596	65.2277048678364	0	0	-4.9639567641496	144.476438960425	
1925000000	-8.56017216881714	121.797529894246	15.5486077619995	61.6979584626907	0	0	-6.0381962435813	30.9240720656287	
1950000000	-8.27675768384194	-3.6748769734088	16.8190450362092	62.1474105763106	0	0	-4.81876153790965	-83.7894745703205	
1975000000	-10.5175936332957	-115.451011627575	16.767933243683	44.6989892737772	0	0	-5.35627878786295	152.867615037289	
2000000000	-8.89209320211456	134.598874611222	15.6403575530774	44.0611854762066	0	0	-6.15730645358227	41.9792453281813	
2025000000	-9.38102601959119	7.24973891643878	17.0616855629614	39.6253346695334	0	0	-5.07859055141671	-77.4970177498594	
2050000000	-10.9947426819618	-99.0380597349013	16.2655755032355	23.8689189756927	0	0	-6.01286428323272	162.770025535407	
2075000000	-8.96016471848635	145.793648022385	15.7227423832067	26.031864614149	0	0	-6.41947956631002	54.6741715305617	
2100000000	-11.6794074286486	19.3059557314657	17.1285811289844	15.3445521664359	0	0	-5.49109581762423	-72.7004992899953	
2125000000	-11.509788706091	-86.1046907601632	15.8687960035227	5.28300399603505	0	0	-6.8017958790224	171.023382845892	
2150000000	-10.1171328535832	154.279843068656	15.929755922318	6.6061636120997	0	0	-7.00766103660378	62.0388774539029	
2175000000	-14.538201272265	31.2021413712438	16.8534772041849	-6.64206286798004	0	0	-6.57404708919948	-71.2861112667391	
2200000000	-12.9413253143838	-74.2796059268418	15.4799806094721	-14.6061503510785	0	0	-8.05562960339979	175.258805942381	
2225000000	-11.6981000675734	160.132600961963	15.9290558751605	-14.5857840373688	0	0	-8.54159765724637	66.8157365710924	
2250000000	-17.3634643950377	56.2781584561158	15.9926335201964	-27.3430585412748	0	0	-9.40581808987916	-71.1603819848901	
2275000000	-13.7374586126472	-61.8104532359461	15.0904695784489	-30.4286687343883	0	0	-11.7371956463926	-165.069905372001	
2300000000	-12.9254550449547	176.033706446561	15.656577444064	-30.0644354999514	0	0	-11.5873924315625	91.5864783766634	
2325000000	-15.1793563608198	72.0377566913506	16.2252073930092	-38.8887962762261	0	0	-11.9322573662673	-30.3873979153132	
2350000000	-12.7718062664734	-59.8170429056617	16.1137633022858	-44.7956919904862	0	0	-9.79769400734768	-134.419883832515	
2375000000	-12.0873680217263	166.750526085541	17.1449449621815	-49.8768694735731	0	0	-8.88924872365177	105.540723648505	
2400000000	-15.2908147894267	46.5418797251211	17.3526885600099	-64.5469373936265	0	0	-9.54255835512532	-30.7234131227714	
2425000000	-12.8715374772816	-80.013452730517	17.1238359846123	-69.5213664481213	0	0	-9.28167444214928	-142.720311098365	
2450000000	-12.5768840202353	143.093811284738	17.9289021346722	-79.2938227688739	0	0	-9.00699914143804	93.5571372341208	
2475000000	-15.7891387253976	20.6010562453414	17.5211676348204	-92.1067875383376	0	0	-11.2325233163286	-42.6567507567023	
2500000000	-13.2480918115487	-114.163348434797	17.814410898207	-100.507234979189	0	0	-11.3964325004429	-160.029781243195	
2525000000	-13.4926795749193	98.8456669682143	17.648938304901	-115.959775104996	0	0	-14.411002320871	61.4594614123797	
2550000000	-16.3860097999333	-56.2957622374684	16.6750759594913	-133.165024072702	0	0	-25.0407061603214	-148.766020355049	
2575000000	-20.6961563360232	95.0474343197182	12.8752733233687	-139.536052587267	0	0	-14.433228834498	-41.9034747916819	
2600000000	-21.4848447008691	-149.531126639254	12.7302541796782	-125.893504407961	0	0	-9.83556217941393	163.783513295488	
2625000000	-15.5553039478988	85.2613184162462	13.6053008233293	-127.655279386759	0	0	-9.96499794399469	30.5593097270255	
2650000000	-13.8804576910281	-56.6889680186655	14.9131350025981	-133.287077651506	0	0	-9.0591709204924	-101.672851908188	
2675000000	-12.6546849452025	163.637565471567	14.8816014207467	-147.276540651454	0	0	-8.53753943213681	129.293857874303	
2700000000	-11.0124210721185	55.3743149957049	14.5941348886725	-152.469080365295	0	0	-9.82797319268536	15.207926966173	
2725000000	-10.2345504721145	-79.976342879288	15.0776670968487	-163.829080029752	0	0	-8.59325394630559	-116.3209271377	
2750000000	-9.47486771594701	151.765119435575	13.8723707645137	-174.983286760827	0	0	-8.56451560205586	118.707261382119	
2775000000	-8.7673475965432	42.9082077275044	13.5873769353052	-177.092343506129	0	0	-9.80361084890233	5.26240278661763	
2800000000	-9.03436896622367	-94.4385656126128	13.1903296035774	170.827078657325	0	0	-8.41760737712005	-130.778009021125	
2825000000	-9.17774326705491	142.194643053459	12.1036371760442	169.407310929921	0	0	-9.25153212729932	105.799391981219	
2850000000	-9.54663286514896	38.7463444941669	12.8205927479015	166.991350398877	0	0	-11.8782742777217	-6.19407151462617	
2875000000	-10.3706837477616	-94.9569678558387	12.4359697054874	154.87264885149	0	0	-11.6947443647945	-140.338941794733	
2900000000	-10.7116364574908	146.145118857398	11.4739375490106	149.576564802109	0	0	-13.6062884572358	121.092871168653	
2925000000	-13.20817709799	43.4615015026624	10.9225101127354	148.902062792137	0	0	-12.4713205703074	42.304537927526	
2950000000	-15.3463423703329	-66.4944327643539	11.1150923271909	145.331563175936	0	0	-10.5236939953712	-93.3147979203705	
2975000000	-14.2354188538913	-169.243743214128	11.1632510354864	144.02327127152	0	0	-9.33511558145374	143.408269077588	
3000000000	-10.6821039972821	89.1815639699971	12.2440402822587	137.25816081215	0	0	-9.14704654735413	35.4764851440096	
3025000000	-12.2576164941245	-29.3669508130852	11.7461488917911	124.929538925522	0	0	-9.20966495251914	-96.691287203277	
3050000000	-11.1172434383695	-144.520833484988	11.6639392666868	122.810494014456	0	0	-9.13428140406076	148.201492537025	
3075000000	-9.07669131862908	101.267339580194	12.1351778627864	112.648855706886	0	0	-8.39840005276041	40.5511622058419	
3100000000	-10.3009362058861	-7.70211771178073	11.2888901484849	104.156536142723	0	0	-9.27003221469739	-85.1415087779908	
3125000000	-9.54326663634853	-126.706351268477	11.5162205233279	101.57979317387	0	0	-8.96048390964879	159.221340980913	
3150000000	-8.26282037859755	114.009807505609	11.5663971050675	89.4679368429651	0	0	-8.0067820053769	49.782968579428	
3175000000	-8.69597089069302	9.78761814746628	10.6501661890565	84.8215559307116	0	0	-9.48373947983524	-66.763109879156	
3200000000	-8.27240767521788	-107.48687987024	11.1665547677639	81.8631748734709	0	0	-9.0173312594003	177.711809216397	
3225000000	-7.92957846003138	130.169216208058	10.8162846277916	68.8627434035001	0	0	-8.10268551090193	62.9891814360885	
3250000000	-7.45888842885241	27.1933825490647	9.93205019680945	65.6042747742938	0	0	-9.01326225163229	-48.9187411779969	
3275000000	-7.53496866180234	-89.7411446200575	10.7200695562127	62.0000264613524	0	0	-8.50644722184884	-166.833580350576	
3300000000	-7.36636597846864	150.282805849305	10.0646815327099	48.2167253173633	0	0	-7.68587474624087	77.5871127912806	
3325000000	-6.28552071375726	45.2868134822467	9.12729488702936	48.5726697453334	0	0	-8.32588795649579	-28.7120802817276	
3350000000	-6.67649902855159	-69.5382128996338	10.1313543541262	42.4992648561148	0	0	-8.12765948966207	-147.918580977132	
3375000000	-6.78250590985129	170.620504735516	9.2439459620744	29.8568304298982	0	0	-7.4878734662446	94.324345897893	
3400000000	-5.41393010975826	61.1609449666148	8.61655354641679	31.0366573898056	0	0	-7.63555518207294	-9.97093878972124	
3425000000	-5.80857562448254	-48.472103981786	9.67114685495595	24.4204843459851	0	0	-7.7833611850937	-128.793120840271	
3450000000	-5.90832720114287	-169.083934338699	8.69350936188626	12.6701376767213	0	0	-7.13616298206219	113.340533316059	
3475000000	-4.81261749380683	74.9701421421256	8.29973593109797	13.389229342586	0	0	-7.10837395507986	7.5800563981115	
3500000000	-5.09492661378584	-34.4825576901045	9.09385965068361	3.56186250553502	0	0	-7.25345336030099	-112.178186873464	
3525000000	-5.24468994593702	-152.569809232241	7.76612699414818	-7.44053699981129	0	0	-6.61277971158534	127.025109758306	
3550000000	-4.30712408756918	92.0811175630706	7.40022688866697	-3.92762909990238	0	0	-6.05881284977939	24.055556714532	
3575000000	-4.58850288858605	-15.0036339142368	8.39890556351624	-13.2585751465599	0	0	-6.77301787334723	-91.0856990698619	
3600000000	-5.01038530515186	-134.191789202619	7.21921793985869	-23.7488181718413	0	0	-6.56042867408247	144.698573470649	
3625000000	-4.18273532930924	106.276350364594	6.96397536009554	-22.0474361716204	0	0	-5.59426526451729	35.3950517633016	
3650000000	-4.2390521532531	-0.863672267376887	7.53365793626591	-33.6196379274332	0	0	-6.11776304445309	-74.2495752780669	
3675000000	-4.8507187258356	-116.808975978764	6.35483712762683	-39.4306291752889	0	0	-6.25975752972184	163.946631202383	
3700000000	-4.480854882498	119.8587486295	6.51819049737273	-41.8567495491284	0	0	-5.29119280505814	52.4270631458412	
3725000000	-4.9106665909324	10.7708459023278	6.16013364094103	-55.1763879641444	0	0	-5.51343065829267	-59.0869084990227	
3750000000	-6.66607038866478	-99.8155403108313	4.31804836219675	-55.3151977359067	0	0	-5.65257450166529	177.32331480627	
3775000000	-6.54242022955358	144.448001985094	5.05341663071978	-51.8120358961389	0	0	-5.11748698014129	60.4540384285432	
3800000000	-5.71609982575296	41.5066441194282	4.66199920059848	-62.3100552401795	0	0	-5.50018201704283	-50.245523882721	
3825000000	-5.45290772281987	-65.6511559510402	4.42315895889138	-58.3329533222068	0	0	-6.29054602531282	-166.907566613173	
3850000000	-5.29138826716723	170.826998472207	5.90139954930752	-64.9481931612706	0	0	-5.46528088987577	75.8587883865336	
3875000000	-4.57450171167801	60.1334592148635	4.84484754492505	-77.575151107702	0	0	-5.71476597956295	-35.1133494439632	
3900000000	-4.42068808315834	-48.1058058901498	4.6133166687721	-72.8036789205631	0	0	-6.15298023182145	-151.402085247163	
3925000000	-5.06323415731163	-166.91113323276	6.12812211691853	-82.5140072045759	0	0	-5.60666083438091	89.4776190964166	
3950000000	-4.45949699101174	74.8600518922416	4.26382501107651	-94.3795450740712	0	0	-5.67080881166555	-23.2977286812604	
3975000000	-4.2185569305539	-34.0650944607187	4.01368835219703	-87.3798347423247	0	0	-6.35568348963175	-138.08382396805	
4000000000	-5.43670068216526	-149.38987105201	5.18685015847977	-95.3986367823908	0	0	-6.60478886831199	100.021019883503	
4025000000	-5.35730196847273	97.1149742266182	4.27529937031616	-101.451273979017	0	0	-7.04049861631263	-10.4141953024728	
4050000000	-4.6426426615609	-12.515334480805	4.70006141762373	-97.8987076460315	0	0	-6.98133733789647	-116.278972884566	
4075000000	-5.39652671493691	-121.931914228136	6.29993822452471	-110.254053839606	0	0	-6.87065390422505	122.752783265479	
4100000000	-4.96238370965904	118.235112791273	4.87759783773422	-118.423993145868	0	0	-6.48837736960754	7.06721764606295	
4125000000	-4.26513329800564	1.59476515830033	5.28990389716076	-116.823578988789	0	0	-6.00694445017596	-100.045376759832	
4150000000	-4.89543389632759	-102.979808656017	6.15870742220892	-131.214861033958	0	0	-6.38682006675657	134.577327872117	
4175000000	-4.85864469200369	138.398959112939	4.5554617318461	-135.949142956124	0	0	-5.98121577833084	12.8030292889557	
4200000000	-4.39394608986957	18.0296908541592	5.03927355201128	-134.299797380182	0	0	-6.04839520270702	-96.3923251184057	
4225000000	-4.97970594011502	-88.0647651081694	5.34348318402309	-142.605296289485	0	0	-7.56410906403518	144.022182063876	
4250000000	-5.29348261457224	156.511170602744	5.05914675964265	-142.739742385871	0	0	-7.67423546005199	25.460546167755	
4275000000	-4.75590571020625	35.3045749244804	6.34154830842105	-145.368928962602	0	0	-6.92518454102283	-77.2968525758967	
4300000000	-4.96610520650219	-66.8282871628555	6.68436134060178	-157.398283470063	0	0	-7.64970419097888	165.619507101726	
4325000000	-5.44436682806355	179.264254312884	6.3964238957257	-160.550620623466	0	0	-6.96849768277889	43.6893605159852	
4350000000	-5.2618554734543	54.4879988412858	7.65639147404379	-167.791215750937	0	0	-5.92962469124755	-65.8223267981053	
4375000000	-4.98095810787352	-50.8842225104167	7.09537809039267	179.907490154704	0	0	-7.31577214459776	172.713980583901	
4400000000	-5.48655280038157	-164.129646934905	7.01544756616951	179.438498617558	0	0	-6.86411431994695	49.058006407771	
4425000000	-5.65069935936862	72.6172411012965	8.05653921648917	171.371753330698	0	0	-6.2540613353947	-59.8858326835588	
4450000000	-5.16961018584494	-34.6659907477754	7.47889917956285	162.433828109767	0	0	-7.85341563149594	-179.004211544633	
4475000000	-5.74099983304399	-150.159983951001	7.84392083364528	161.186930850839	0	0	-7.27917410868035	60.3493341631466	
4500000000	-6.38452104694548	86.8146585198962	8.87245354326286	149.442163757381	0	0	-6.7586591778704	-52.522367106719	
4525000000	-5.55296170408813	-25.2108003832945	8.16241611010574	142.078718790477	0	0	-8.50267207874632	-166.977888018957	
4550000000	-6.55618552523219	-140.529193510735	9.09122870612103	138.701299259983	0	0	-7.7187129920847	71.026028149325	
4575000000	-7.52334788156416	100.39741501197	9.63503429121773	125.019225964278	0	0	-7.56228004960999	-47.7162527089004	
4600000000	-7.15343823509727	-17.8142363245332	9.25464614748492	116.664539491088	0	0	-8.76274765728081	-157.64211582468	
4625000000	-9.82133082934552	-138.881491769431	9.84473559799445	107.491465016389	0	0	-8.21747494170486	83.5328641573008	
4650000000	-13.0426646484247	122.198892580784	9.05832426186025	89.861358680897	0	0	-8.40539501340897	-38.7718195112203	
4675000000	-11.7945858524255	23.9557272424055	6.99003565923071	89.1250298363471	0	0	-8.37025017611208	-152.782549900269	
4700000000	-9.98308531569808	-85.1392610554291	7.78212325760886	92.9629269319682	0	0	-8.2734115744065	83.2769978327235	
4725000000	-8.57804375036497	163.42464162455	8.15572967881553	87.7135125049133	0	0	-9.11827900975148	-49.9336466851622	
4750000000	-8.61036224075131	30.4326704150864	9.39336320196059	85.5636051781426	0	0	-10.1761176430914	-162.246267792661	
4775000000	-9.91651502110952	-88.4942754192578	10.511119642848	73.4218364990031	0	0	-10.6654999691323	74.5477747242666	
4800000000	-8.99395805522521	164.455564865044	10.4964043575129	65.6810919267917	0	0	-12.0158171355222	-74.1586285231474	
4825000000	-11.1947044345721	23.0993565453545	11.7553855133033	55.0063367103052	0	0	-13.703895021816	-177.015848082865	
4850000000	-12.8620892385163	-85.3349984660245	11.8134823303516	42.298939169641	0	0	-14.1633189471413	35.1957039596835	
4875000000	-12.2399877182597	163.29770856866	12.235218364755	33.1469571637389	0	0	-12.4298791047371	-125.216471368837	
4900000000	-20.3949572089256	-5.7876209377519	12.885104365185	17.5901139915477	0	0	-16.3980859046218	118.236018374688	
4925000000	-22.2522125379763	-71.3278802317156	12.4061672926096	5.49644208050881	0	0	-10.5938438073705	-39.1177075189432	
4950000000	-27.6386724701173	155.499467400374	13.1068832383889	-6.49757661183474	0	0	-8.96347826499026	-171.061961241372	
4975000000	-17.4106307214153	-140.566912361295	12.4273136794136	-24.1502149668527	0	0	-9.86568544642421	61.6284527739997	
